!Created with skrf (http://scikit-rf.org).
# Hz S RI R 50.0 
!freq ReS11 ImS11
400000000.0 -0.8215408662491831 0.23479437430633854
420000000.0 0.2353027859349617 0.796359030382062
440000000.0 -0.014758658303693972 0.7790717641703074
460000000.0 -0.5041958472025473 0.5243304943482743
480000000.0 -0.6573630743117168 0.1322035772548179
500000000.0 -0.5098893789789437 0.3389261026966708
520000000.0 -0.47947976582381335 -0.23149705484340607
540000000.0 -0.28782656713403165 0.35987040099218703
560000000.0 0.22606027034144774 -0.37144811513896553
580000000.0 0.2658019204613355 -0.2738984899698491
600000000.0 -0.3543055428612206 0.048549643848841355
620000000.0 -0.35490814164916723 0.022655300592935367
640000000.0 0.0990791504648172 -0.3882460362937466
660000000.0 0.24984407287418883 0.3572652169752115
680000000.0 0.08068903581426444 -0.4428888544928703
700000000.0 0.4340621254990053 0.08556525188005132
720000000.0 -0.22884656800566636 -0.3661803827735479
740000000.0 -0.40321947477709946 0.029482090959660298
760000000.0 -0.358396423909433 -0.08372954759601701
780000000.0 -0.13214252566080978 -0.3195378126854899
800000000.0 0.1939901647318534 -0.2293225660263769
820000000.0 -0.005595777208256243 -0.23349702840740538
840000000.0 0.1579096623901919 -0.0855753188584173
860000000.0 0.10140747824564274 0.07925994143488724
880000000.0 -0.01632582475233369 0.08844021945374458
900000000.0 0.060853686599458584 0.001496193357562052
920000000.0 0.018629042036471383 0.05309192582561178
940000000.0 -0.020322298022414743 -0.05540023172130636
960000000.0 0.06333484509093688 0.023182554111597246
980000000.0 -0.052944107265189444 0.05965996486971874
1000000000.0 -0.09945374101369185 0.021434333874514662
1020000000.0 -0.09852932563704231 -0.0798050823340356
1040000000.0 0.0578847014465528 -0.13676631103607284
1060000000.0 -0.027242963729205986 -0.1684078194879019
1080000000.0 -0.14119526837047638 -0.1367356119370567
1100000000.0 0.12159700701714816 0.1935206893722599
1120000000.0 0.2082701449978111 -0.14797149271709745
1140000000.0 0.2558022197420564 0.11627977046138827
1160000000.0 -0.12583385240215983 -0.27477382991296867
1180000000.0 -0.051118274101710416 -0.3136348431144691
1200000000.0 -0.0741306114346772 0.32451051898883293
1220000000.0 0.30520109502709397 0.1750252086690061
1240000000.0 0.021478507844698326 -0.37382436055803075
1260000000.0 -0.38287644035213 0.06005020561041667
1280000000.0 -0.10708192249587131 0.3774573454622621
1300000000.0 -0.3725130420788048 0.12776248529694384
1320000000.0 -0.35179539221022105 -0.21291438486486153
1340000000.0 -0.34877455462362444 0.24838409843264692
1360000000.0 0.42131617248839826 0.09642592378801906
1380000000.0 -0.20396480091612168 -0.3633672310191523
1400000000.0 -0.09471624920506183 0.3877664948416121
1420000000.0 0.31333500281574195 -0.18588307465620005
1440000000.0 0.0033015824009340845 -0.33114330640521944
1460000000.0 -0.20042939644578783 -0.21527782684640187
1480000000.0 -0.027474187500495312 -0.25770037090567494
1500000000.0 0.05128469808559628 -0.22932807920489207
1520000000.0 -0.0005230122803426011 -0.21251036922905897
1540000000.0 0.12765574209385172 0.13679881772650665
1560000000.0 -0.04634399023783989 0.15197768491703956
1580000000.0 0.052674165822009615 -0.1153799101054503
1600000000.0 0.07758419746668672 0.029474275236863422
1620000000.0 -0.03444036613575448 -0.02051099960022776
1640000000.0 -0.008743698181159418 -3.638426485048407e-05
1660000000.0 -0.018666160576581554 0.01222219062318121
1680000000.0 -0.03501008799064767 -0.008855794314528325
1700000000.0 -0.040966974949696505 0.0035805610603646433
1720000000.0 0.004616504969311314 0.04518401209307899
1740000000.0 0.03965649544748754 -0.049748450306044543
1760000000.0 -0.04637624424255164 0.07223341920359978
1780000000.0 0.04915156905277572 0.10282043377008972
1800000000.0 -0.14270103693375644 0.04672064950952351
1820000000.0 -0.02306626603603013 -0.18265640493902066
1840000000.0 0.09396535546903544 0.20273442839175537
1860000000.0 -0.05944395265802274 0.2602407883355883
1880000000.0 -0.2980721059481174 0.07611961190931105
1900000000.0 -0.32474813831456595 -0.10225074287107459
1920000000.0 0.2428086012616018 -0.271055225245234
1940000000.0 -0.20072454269524462 0.32705017789269997
1960000000.0 0.27729064838487144 -0.27894324404697435
1980000000.0 -0.19376895413756443 -0.34617131830774833
2000000000.0 -0.25276614514767476 -0.31539707636949393
2020000000.0 -0.2627207074541405 -0.31616893776619986
2040000000.0 -0.382015297986696 -0.17939564760994556
2060000000.0 -0.15726525661434745 0.3958544841231994
2080000000.0 0.4081872676042673 0.10116786804497362
2100000000.0 0.04826611070177459 -0.40876924771979223
2120000000.0 -0.39365167787243666 0.02096040580337344
2140000000.0 -0.313288062346865 -0.1947904528070155
2160000000.0 -0.30055198211651535 -0.16627137252520038
2180000000.0 0.07387049437133347 -0.3186697384204422
2200000000.0 0.12973622324818393 -0.2890856211454019
2220000000.0 0.21584234229135407 -0.22318768652270887
2240000000.0 -0.15370445394210722 -0.2688489449331238
2260000000.0 -0.28308023625173967 0.12954405840562813
2280000000.0 -0.09453166515040404 0.3042221386498014
2300000000.0 0.2729027811811916 0.2018866117103727
2320000000.0 -0.13510834414469822 -0.3502140427096267
2340000000.0 0.3930311829525505 0.13774512646466072
2360000000.0 -0.1144245104287431 0.44682725254916494
2380000000.0 -0.44208685776229006 -0.24639321316449259
2400000000.0 0.029132189339105875 -0.5555065507012775
2420000000.0 0.5955689883211446 0.08368087497000783
2440000000.0 -0.15435163257049686 0.6220870925828829
2460000000.0 -0.592219384264104 -0.323193891759584
2480000000.0 0.6477813366371714 -0.26933290815872907
2500000000.0 -0.5384066887492898 0.47780891948156773
2520000000.0 0.4240324729994556 -0.5921214676406984
2540000000.0 -0.4883396270013812 0.5403662611970675
2560000000.0 0.6933035458297682 -0.19817407505173174
2580000000.0 -0.6792063741916421 -0.19229331182741233
2600000000.0 0.43250309711494683 0.5297894425000791
2620000000.0 0.6519209759207713 0.09253553022430368
2640000000.0 -0.5839355132004129 -0.23698574018878513
2660000000.0 0.47115817770856677 0.36455582853447793
2680000000.0 -0.4328614689339088 -0.35585343659265567
2700000000.0 0.374847757543738 0.3637483530372733
2720000000.0 -0.33337139215934114 -0.35251116286383494
2740000000.0 0.18808633952709722 0.41282217446889713
2760000000.0 -0.060766573628355094 -0.42357787670280106
2780000000.0 -0.08977242261505346 0.39987965722803687
2800000000.0 0.15610829611787097 -0.36834925227968457
2820000000.0 -0.035370493929556844 0.4063241024614115
2840000000.0 0.038975574563219935 -0.4032693679645839
2860000000.0 -0.1425038198389654 0.3739615260664282
2880000000.0 0.34765965898172724 -0.18548209883886724
2900000000.0 0.09858012011028289 -0.3796519603755512
2920000000.0 -0.20614215407448913 -0.3363323190298426
2940000000.0 -0.3788138888182812 0.09116844086631457
2960000000.0 -0.11945913303901122 -0.3719847685311631
2980000000.0 0.3136342880074604 -0.22968873547607635
3000000000.0 0.3044827900643829 0.2552438986968082
3020000000.0 -0.3025995663394731 0.25998281544633817
3040000000.0 -0.23002509907765745 -0.32305991381259674
3060000000.0 0.3848517986308708 -0.006429932715381864
3080000000.0 -0.36300540041956575 -0.06272661496373497
3100000000.0 0.3425814524878039 -0.10722639243690399
3120000000.0 -0.23069938318774588 0.25394777190995577
3140000000.0 0.09997262752913476 -0.3087383277636582
3160000000.0 -0.30499731000441765 -0.06790706201200333
3180000000.0 0.23050825972317154 -0.17529728074015866
3200000000.0 0.07046187141223091 -0.25267009684526415
3220000000.0 -0.01357921226640225 -0.23384561053101557
3240000000.0 0.20001355569958604 0.030128038441304055
3260000000.0 0.04436463965613047 0.17389963714851273
3280000000.0 -0.10589441407279834 0.12038507611548344
3300000000.0 0.1300690385458856 0.08107188252501032
3320000000.0 -0.11349045241290186 0.060497988728419154
3340000000.0 0.11750075674506578 -0.00971409459534939
3360000000.0 0.06648576973211529 0.08011869605294222
3380000000.0 -0.04061676334023357 0.08722798766714604
3400000000.0 0.10064080764867293 -0.031826523658821965
3420000000.0 -0.0974880532700064 0.0012910503662865798
3440000000.0 -0.08756295536350157 -0.012432952162565467
3460000000.0 0.06789140011306338 -0.08279474878648777
3480000000.0 -0.10163643980058236 0.029453403436701504
3500000000.0 -0.10561995196102258 0.04004022960378696
3520000000.0 0.04874685095531428 -0.1285185798412285
3540000000.0 0.01261689428800967 0.1439067879097518
3560000000.0 -0.15758539083708342 -0.04681179637134558
3580000000.0 -0.07418590387068164 0.1626662248627446
3600000000.0 0.19804780756232182 0.019251727862956397
3620000000.0 0.149953295421195 0.1691790998363677
3640000000.0 0.1509765016060774 -0.20056492109478657
3660000000.0 -0.2511345839446222 -0.019054065677094865
3680000000.0 -0.13140087599416886 -0.21071081814595521
3700000000.0 -0.21614203434556137 -0.125288925918393
3720000000.0 0.08792164045961406 -0.23939979121541333
3740000000.0 0.2242528477828503 0.17047583076675304
3760000000.0 -0.24435929341588675 -0.09839411935856494
3780000000.0 0.28940811805021643 -0.04483119215385627
3800000000.0 -0.13537215941376438 0.25321896860088833
3820000000.0 -0.13080392352774242 -0.21778480704711028
3840000000.0 0.1506335158157072 -0.1881233367161067
3860000000.0 0.11786236232209042 0.19768870124810858
3880000000.0 -0.1642346703780367 -0.15075535451330507
3900000000.0 0.09959061572026433 0.2278674950257588
3920000000.0 0.1050310569129975 -0.2535131098532426
3940000000.0 -0.1803283155928932 -0.20922988632403577
3960000000.0 -0.1645751683023437 0.21959138996188726
3980000000.0 -0.2195840963216681 -0.02798416364495157
4000000000.0 0.0584035073533436 -0.17985847571495414
