!Created with skrf (http://scikit-rf.org).
# Hz S RI R 50.0 
!freq ReS11 ImS11
400000000.0 -0.6938536558012864 0.49480955133110793
420000000.0 0.5553461443479337 0.6215810852919518
440000000.0 0.7433806271292175 -0.2189077059934941
460000000.0 0.6995576484353396 0.11565199184907073
480000000.0 0.2801540426186608 0.5759125970284247
500000000.0 -0.39335465468299713 0.4193467231938812
520000000.0 -0.007456488850170781 -0.5171750175664163
540000000.0 -0.09832375561087982 0.4503236391684516
560000000.0 -0.27264679945162495 -0.33244466602544975
580000000.0 -0.3896915633033172 -0.040663136586920764
600000000.0 0.07039325610035149 0.360042609682276
620000000.0 -0.06759095122428509 0.367631639860697
640000000.0 -0.3432714540440318 -0.24072837308426023
660000000.0 0.39866060934852143 -0.22460547068121167
680000000.0 -0.418604479641455 -0.22234161058164234
700000000.0 -0.23196150824709127 -0.4078904529272919
720000000.0 0.28713028856801176 0.3387957578661771
740000000.0 0.38644378218738296 0.1103467870589262
760000000.0 -0.13726264749844402 0.32223190056750073
780000000.0 0.32176860068699714 0.056740546554131695
800000000.0 0.09033818143647572 -0.2720723646845952
820000000.0 0.04218522079214611 0.23205856113194
840000000.0 0.10710723596171491 -0.16990961360811602
860000000.0 -0.163460755176058 -0.03379319558753882
880000000.0 -0.12598188353666379 0.00771275553368199
900000000.0 0.02779234070747028 -0.08745832155943704
920000000.0 -0.019628270839287327 -0.05046544954466896
940000000.0 -0.014898071959194707 -0.0351549017344383
960000000.0 0.017975325756497632 0.04345370913838493
980000000.0 0.052062755449512214 -0.04161647523740705
1000000000.0 0.08860174829941106 0.008849164455169327
1020000000.0 0.07661089251342351 -0.08622876797229596
1040000000.0 0.07103657587621898 0.11461619903147598
1060000000.0 -0.11014992037050632 -0.12530598904401186
1080000000.0 -0.1821953361651861 0.07332893574475112
1100000000.0 0.22387790885493694 -0.029010318544808615
1120000000.0 -0.09073516356733706 -0.23351357379442744
1140000000.0 0.16611417382376395 -0.21558480250834394
1160000000.0 -0.15811615527453593 0.25171774355209636
1180000000.0 0.3079947060530317 0.014307313757110526
1200000000.0 -0.2658389184975747 -0.15422920869349263
1220000000.0 -0.24777713028309764 -0.21315807270584192
1240000000.0 -0.29508419896829013 0.19346481243086905
1260000000.0 0.36237601510381107 0.07134495231098553
1280000000.0 -0.03145188636699406 -0.3763466994226259
1300000000.0 -0.14661145390064875 -0.3466284897818293
1320000000.0 0.13744618164444464 -0.3553594207256548
1340000000.0 -0.005297308524122421 -0.38855449145816684
1360000000.0 -0.34239082179220226 -0.17854691865289846
1380000000.0 -0.37617820505129623 0.015491022933002854
1400000000.0 0.036566434671271054 0.3600568443998018
1420000000.0 0.3377986057301349 -0.018858247058869636
1440000000.0 0.0224311325870832 -0.30860438479899155
1460000000.0 -0.2093475985764538 -0.1851684894295495
1480000000.0 -0.12810677798199452 0.20888468335725355
1500000000.0 0.1835476239099285 0.09180681199911396
1520000000.0 -0.01725750142687987 0.1640724848000471
1540000000.0 0.12586735949259995 -0.006811290118725201
1560000000.0 0.00794468406701881 0.10688510891815671
1580000000.0 -0.07695870611229348 -0.05415239687093766
1600000000.0 0.05393657295406306 0.05153523166832574
1620000000.0 0.035733361258984 -0.04492412514860433
1640000000.0 0.03765554517872918 0.007437698351438401
1660000000.0 -0.024811575655171912 -0.029699078885437647
1680000000.0 -0.026271106358946812 -0.03831101139286859
1700000000.0 -0.057905848496506186 0.01074932849638593
1720000000.0 -0.07083774108823325 -0.014929686943422366
1740000000.0 0.08200730720462882 0.03536233556077467
1760000000.0 -0.09034704280182804 0.05830118674981954
1780000000.0 -0.09157571506849012 -0.10309250694179435
1800000000.0 -0.14463197363296185 -0.10014109053682967
1820000000.0 0.15026700033883736 -0.14302079584207084
1840000000.0 0.11470152474372507 0.21615643072314228
1860000000.0 0.03419869470836747 0.27863498039801504
1880000000.0 -0.2781772923144412 0.13403653837047827
1900000000.0 0.2882557984482568 -0.16171024036134593
1920000000.0 -0.35296900949189364 -0.03487965331800455
1940000000.0 0.2146538129547761 0.30795516907490544
1960000000.0 0.01907460049016067 -0.389126848259057
1980000000.0 -0.36609086218940984 -0.15626906826265916
2000000000.0 -0.38476268753183906 0.12956183948835637
2020000000.0 -0.2867815905557752 0.295218657134335
2040000000.0 0.0900044459219006 0.4071800321583679
2060000000.0 0.3966292006012612 -0.11753985252210544
2080000000.0 -0.06061109627224551 -0.3968328965709473
2100000000.0 -0.29645442984950227 -0.24078421094897623
2120000000.0 -0.17291554288419297 -0.3166312782256613
2140000000.0 0.2901155970344447 0.18237537462017128
2160000000.0 0.0266257722810372 0.321924990216829
2180000000.0 -0.30397618943303245 0.04607840879249588
2200000000.0 0.049538540060121115 -0.29220621594019824
2220000000.0 0.24831658867353368 0.15355714469807544
2240000000.0 -0.12438280509880259 0.2708175126859459
2260000000.0 -0.30479644509156667 0.058529811494921535
2280000000.0 -0.31899956529875784 0.08875811391404688
2300000000.0 0.10573063267381946 0.3428950188930442
2320000000.0 0.2050983938831463 -0.3416542438180725
2340000000.0 -0.015164696532982573 0.44464707458689273
2360000000.0 -0.46838700671502936 -0.1587281528627011
2380000000.0 0.018845446606558534 -0.5475850329311154
2400000000.0 0.5972008469933953 -0.04340978005677029
2420000000.0 0.09797202578239673 0.6388556583428723
2440000000.0 -0.6868896726736856 -0.006232112238264503
2460000000.0 0.38799722817951715 -0.6055045441092763
2480000000.0 0.04921118368782354 0.7418809729006852
2500000000.0 -0.14468575656164043 -0.7439803995334722
2520000000.0 0.021751995500432716 0.7652083571265801
2540000000.0 0.31186785586021687 -0.6989986959819591
2560000000.0 -0.6562858454419247 0.37887121925920847
2580000000.0 0.7083974176853653 0.2213594060752214
2600000000.0 -0.4280158127973971 -0.5771512820212795
2620000000.0 0.05332420256004604 0.6871296363505064
2640000000.0 0.5615618433431512 0.3304462932992285
2660000000.0 -0.3012007304366224 -0.5286051013657616
2680000000.0 0.0507185131555917 0.5598430785011429
2700000000.0 0.2215797485203739 -0.4657700704476956
2720000000.0 -0.32046591043848943 0.3443201923847748
2740000000.0 0.40292363109070234 -0.14827589232532648
2760000000.0 -0.39212539941691754 0.019619803088674222
2780000000.0 0.32160909675069693 0.17016623273347978
2800000000.0 -0.3143895470913486 -0.14298431857906682
2820000000.0 0.3289949108162237 -0.039720646592189164
2840000000.0 -0.1527452068913884 0.28553917556251607
2860000000.0 -0.05697394032733581 -0.3112876917146656
2880000000.0 -0.0049260037866775686 0.31155384351113175
2900000000.0 0.3081665042908991 0.0032148063700293775
2920000000.0 0.2771512700176787 -0.14372206644443902
2940000000.0 0.1835466740317097 -0.2617804773983085
2960000000.0 0.12765152256310092 -0.2989733455561982
2980000000.0 0.25131329767374094 -0.21661689146017052
3000000000.0 0.3136809956200829 0.12632750598950934
3020000000.0 0.05519228512851926 0.3392956559539648
3040000000.0 -0.3462985231544609 0.006048656954964262
3060000000.0 -0.14869493587999372 -0.31706203034178865
3080000000.0 0.2203611184425855 -0.26978933496302865
3100000000.0 0.33531819934277507 -0.05206887624941592
3120000000.0 0.11585611040742114 0.30252351706874897
3140000000.0 -0.30711686289240014 -0.006136009791294656
3160000000.0 0.21112108899634147 0.19816644302256586
3180000000.0 -0.20470941031958353 0.17813285450236893
3200000000.0 -0.22643105581679432 -0.10646217678125679
3220000000.0 -0.040837495937267536 -0.22184071966957888
3240000000.0 0.06336728198222584 -0.19134479948450486
3260000000.0 0.08828451446562116 -0.1509855000274119
3280000000.0 -0.12676002295218558 -0.08354937563655804
3300000000.0 0.12063872000443583 0.04668021160285729
3320000000.0 0.09479060744570236 -0.05570641583615875
3340000000.0 0.010061869207742581 0.09640436929582032
3360000000.0 -0.004339573909449663 0.09139263405260248
3380000000.0 0.004113666607495214 0.09185381924061385
3400000000.0 0.09488537814646755 -0.03151801788582483
3420000000.0 0.11276482033455146 0.024524259076461885
3440000000.0 -0.12953206509017015 0.02781684425131476
3460000000.0 -0.06240268936008576 0.1340138409747647
3480000000.0 -0.16091671125121254 0.00435197959701402
3500000000.0 0.04824382661695239 -0.16757836518423685
3520000000.0 -0.05124872888535798 0.17798577127751108
3540000000.0 -0.13027110702605796 -0.14174958512135166
3560000000.0 0.16129144902135104 0.10152767043795383
3580000000.0 -0.021331914723315623 -0.18416311126121152
3600000000.0 -0.1546585130661677 -0.08470087880643301
3620000000.0 -0.09306216857106046 -0.13521318969739898
3640000000.0 0.1471767504291323 0.02842846194091038
3660000000.0 -0.03981761551041893 -0.1296070613808117
3680000000.0 -0.08254356789503689 -0.09128019047642025
3700000000.0 0.010424767805475714 -0.11258745141235199
3720000000.0 -0.02255454491128412 0.10430339834999729
3740000000.0 0.0972076489948825 -0.03201288264208798
3760000000.0 -0.00919280977405356 0.10653562432118494
3780000000.0 0.11178579371826122 0.03986704956617624
3800000000.0 0.06727514291837675 0.11894281778907534
3820000000.0 -0.03151059420108946 -0.15275544264678742
3840000000.0 0.13578569799371287 -0.107545918906837
3860000000.0 -0.09034606183212132 -0.16688288227274792
3880000000.0 0.042691272774746734 0.19564356967333463
3900000000.0 -0.1821663427327487 -0.08204558969189542
3920000000.0 0.0877562138338285 -0.17018806667204608
3940000000.0 -0.05858226084770292 0.16654651735953932
3960000000.0 0.003277630065895466 0.1563676562677161
3980000000.0 0.0687468476466633 -0.11011745483645381
4000000000.0 0.0705422761263691 -0.07143696291732651
