!Created with skrf (http://scikit-rf.org).
# Hz S RI R 50.0 
!freq ReS11 ImS11
400000000.0 -0.8229959947385511 -0.2559616439946794
420000000.0 -0.2540285131969928 0.798568324742836
440000000.0 0.5567431290649469 0.5530071537425748
460000000.0 0.3591030607150985 0.6209971307127082
480000000.0 -0.6085323118270655 0.21072149424434936
500000000.0 -0.36314550668583084 -0.4592807030171241
520000000.0 0.23613387752270487 0.46255346743818315
540000000.0 0.26828935840118123 -0.3801510586549352
560000000.0 -0.3119464688582125 0.3074382044064657
580000000.0 -0.1867867911590422 0.35839480825515835
600000000.0 0.03908938078721407 -0.37453941110149874
620000000.0 -0.12852759223352514 -0.3525019443999498
640000000.0 0.2518198073199127 -0.33739121986280185
660000000.0 0.2793880085274666 0.3618621256172187
680000000.0 -0.3940415685689877 0.26088513520144724
700000000.0 -0.4341717975709821 0.10406065534023937
720000000.0 0.18869659729436514 0.37073172335502186
740000000.0 -0.060043371136927 0.3714026228855553
760000000.0 0.10615614225895574 -0.325264503564821
780000000.0 -0.010544864813943459 0.32089188942343894
800000000.0 0.20115221699249025 -0.21505947183326402
820000000.0 -0.19580587300573024 0.13564138416220417
840000000.0 0.12464836292493661 0.13218263737040647
860000000.0 -0.15268448816297456 0.0019767389545171372
880000000.0 0.0486782019676294 0.10859655344008977
900000000.0 -0.06886997718898569 0.04832068355556971
920000000.0 -0.02966122851380489 -0.04922347213901237
940000000.0 -0.008457324976573918 -0.04260969175110588
960000000.0 -0.01425438619319836 -0.052217673071151924
980000000.0 -0.045326482216977514 -0.06000012557344502
1000000000.0 -0.025347554852983154 0.08563213565580309
1020000000.0 -0.1190803692073448 -0.015615493226264324
1040000000.0 -0.009212245290944608 0.1404063173539707
1060000000.0 0.11388159289450908 -0.12228564391223824
1080000000.0 -0.1988935308655038 0.00771628307901172
1100000000.0 0.22461360767483923 -0.01523851890438979
1120000000.0 -0.07707813671173976 -0.246519037920042
1140000000.0 -0.27826603969616287 -0.00023480225708583268
1160000000.0 0.12734327894057532 0.2616526209148927
1180000000.0 0.02296476276798914 0.30822594188616964
1200000000.0 0.07736549955760345 -0.3082453721808287
1220000000.0 -0.14854013831715163 -0.3121432647782086
1240000000.0 0.1138890333650042 0.35459983510549054
1260000000.0 -0.1009952112133982 -0.37133496015477296
1280000000.0 -0.3711038932952831 -0.09283917380061317
1300000000.0 0.16732511335745767 -0.3544649508612155
1320000000.0 -0.3122044399555065 -0.2645816251775564
1340000000.0 -0.4111004600369883 0.016465799864610785
1360000000.0 -0.09196663955862416 0.4055915368175961
1380000000.0 0.3403979741370908 -0.21346976046537589
1400000000.0 -0.03713952098486931 -0.38109336608665034
1420000000.0 -0.3566558625176883 -0.045197301195882195
1440000000.0 0.022192505513409323 0.33600865565264737
1460000000.0 0.28402639771597876 -0.11136621568350356
1480000000.0 -0.180606712184674 -0.20613003450598721
1500000000.0 0.08848877078548538 0.22261116564505895
1520000000.0 0.20846268729326245 0.005977315826530509
1540000000.0 0.017535224698774915 0.17246828199207953
1560000000.0 -0.121543851408081 -0.06552737799398742
1580000000.0 0.08200518849004518 -0.06398885509624551
1600000000.0 0.04005421758681224 -0.06216511391398395
1620000000.0 -0.051631163209625894 0.0017626665687510811
1640000000.0 0.0327445418677449 0.004721293491838528
1660000000.0 -0.01913218986921475 0.002761810087304717
1680000000.0 -0.005640528782699359 0.009025923042769168
1700000000.0 0.0006608226684662108 0.007978912126955949
1720000000.0 -0.01415361867599001 -0.011976178171859291
1740000000.0 -0.04029491095639441 0.007914541102249185
1760000000.0 -0.05992531671875067 -0.03361133327627049
1780000000.0 -0.052833085987334806 -0.09015754559987267
1800000000.0 -0.12553062919414618 -0.08441979139740863
1820000000.0 0.1830071895876691 0.018583949280575378
1840000000.0 0.21200620082515242 0.011510933966967273
1860000000.0 0.03517763707724446 0.2392371602825758
1880000000.0 0.030970195588080923 -0.265914326415348
1900000000.0 -0.2960411776578117 0.05605664956121715
1920000000.0 0.2571236058646494 0.21707259912018714
1940000000.0 -0.2544360716931276 -0.2712731723906899
1960000000.0 0.3333805631879045 0.2103702767108868
1980000000.0 -0.1319389409944328 -0.38817489980881437
2000000000.0 -0.2711496536660331 0.3209811076970699
2020000000.0 0.3326760974900038 0.2576916891827882
2040000000.0 0.4071477979649489 0.09100235580458654
2060000000.0 0.4041257741540033 0.08665799381941622
2080000000.0 0.34770854905793086 0.22150796429298591
2100000000.0 0.4117755038969194 -0.04683422592331306
2120000000.0 -0.14487499854017719 -0.3815616087673721
2140000000.0 -0.2756571797121806 0.2763455255314699
2160000000.0 -0.35204315964544086 -0.08952372738677494
2180000000.0 -0.14674650703811434 -0.31075345868793036
2200000000.0 0.0658432946414919 -0.323607878742635
2220000000.0 0.3055100101152191 -0.10107691498357901
2240000000.0 0.2742389044577976 0.17107450402260074
2260000000.0 0.2766197501018203 0.18416677141005067
2280000000.0 0.3134943565830131 -0.15271853530126633
2300000000.0 -0.3083139741637278 -0.20336264041919852
2320000000.0 0.11342146784950546 0.38233404294622
2340000000.0 -0.20325358361585621 -0.3812766187309743
2360000000.0 0.2029928521645204 0.42484936587364414
2380000000.0 -0.45263212352784055 -0.25685145891974454
2400000000.0 0.4842459187576796 -0.3024017261946701
2420000000.0 0.21006151201039547 0.5815908278820152
2440000000.0 -0.6582969171802073 0.0409887980970358
2460000000.0 0.3259807206750487 -0.6107128775568293
2480000000.0 0.14461653374455943 0.7023913247576685
2500000000.0 -0.2974922757140269 -0.6704325114153207
2520000000.0 0.15698578227527818 0.7246431415839509
2540000000.0 0.2278551651088396 -0.706731356804908
2560000000.0 -0.5788220352566386 0.4547174851909076
2580000000.0 0.7049495359024524 0.15552325163248007
2600000000.0 -0.4150814122456172 -0.5630835040329527
2620000000.0 0.060997965640843844 0.6695181106202909
2640000000.0 0.4470158525861494 0.45657837353045067
2660000000.0 -0.17524023071460576 -0.5750936811099191
2680000000.0 -0.013340696212719142 0.5590054186086788
2700000000.0 0.1967937072554457 -0.4780119016859376
2720000000.0 -0.29431069477616845 0.37243610289598916
2740000000.0 0.33508815443561624 -0.2848576704635349
2760000000.0 -0.22882460826497159 0.3393856206436855
2780000000.0 -0.04731960939313258 -0.3824888739455115
2800000000.0 0.34331542183758 0.12738034046613209
2820000000.0 -0.2855094801782881 0.20370358038734612
2840000000.0 0.11247153848459128 -0.32403165796358036
2860000000.0 -0.028574123124592742 0.34010177653275914
2880000000.0 0.17241095927358663 -0.295795759943318
2900000000.0 -0.32032025551397164 0.14211913213126362
2920000000.0 0.3530959091260798 -0.055176160880660435
2940000000.0 -0.3563802255665806 -0.03996213180428431
2960000000.0 -0.15985199402621764 0.3090636219443204
2980000000.0 -0.3034993848836206 -0.1545072784451928
3000000000.0 0.3419122335810809 -0.03647621780320734
3020000000.0 -0.07428116138586004 0.3418299034997831
3040000000.0 -0.3517907767684791 0.02851481463651264
3060000000.0 -0.21111168771489708 -0.27987942867360194
3080000000.0 0.25945476045207516 -0.22578491119962388
3100000000.0 0.3027022790375403 0.13858163328776052
3120000000.0 0.009898393297548876 0.31655613596552623
3140000000.0 -0.286963338239954 0.0601911679324433
3160000000.0 0.14111676654618088 0.22699236132742723
3180000000.0 -0.12594979998147748 -0.20856651775317747
3200000000.0 0.19512641358825045 0.11058701106135263
3220000000.0 0.1001749822782134 0.1776919146150365
3240000000.0 0.167644179430669 -0.052260952336414083
3260000000.0 0.02864362817780371 -0.1397127334514998
3280000000.0 -0.08042632585800254 -0.07118419209578454
3300000000.0 -0.07910171029907027 -0.0031400966322554613
3320000000.0 0.0047218961602612745 0.05725646816971963
3340000000.0 0.018812387872303982 -0.03780454674586849
3360000000.0 -0.011491609166685613 -0.033847456661378006
3380000000.0 0.0406334305763438 -0.007508020704483065
3400000000.0 0.03234482882492878 -0.04019319953743454
3420000000.0 -0.0448467263430722 -0.0464277814378474
3440000000.0 -0.07348496130398834 0.007971482482082277
3460000000.0 0.036872718482102426 0.07268561002859317
3480000000.0 -0.05684309392076643 -0.06662100245076381
3500000000.0 -0.05103012049872218 -0.08776219270329867
3520000000.0 0.09056388514516843 -0.08889031672445248
3540000000.0 -0.1480481245851438 0.018568246450084525
3560000000.0 0.1351740130947186 -0.09438928427745091
3580000000.0 -0.1509345721145337 0.0859600396673389
3600000000.0 0.17729452377317778 0.008397585071396322
3620000000.0 0.17075251767213245 0.025152930909927037
3640000000.0 -0.15745169051931554 0.06750767034877624
3660000000.0 0.05844939493477848 -0.16101822751590572
3680000000.0 -0.09798679327912656 0.14261530665384847
3700000000.0 -0.17265935713527744 0.03559936148723148
3720000000.0 -0.14472780401623372 0.1007105534004639
3740000000.0 0.02742663350719069 0.1643641198655849
3760000000.0 -0.0025219169035412933 -0.1480483991382488
3780000000.0 0.05169390797724078 -0.1211035356753701
3800000000.0 -0.056457175362039654 0.10862145249338422
3820000000.0 0.041491356364155796 -0.11251116280519029
3840000000.0 0.011450678328806294 0.11797323617973315
3860000000.0 -0.11634691306455477 0.03444242848215684
3880000000.0 -0.11627203175625642 0.04035599275258077
3900000000.0 -0.10781030876189002 -0.06815306621493025
3920000000.0 0.13495929159216877 0.011034788672136104
3940000000.0 0.08024953792117628 0.11214401743321252
3960000000.0 0.10586205598265344 -0.09009128387212946
3980000000.0 -0.10737978968253901 0.07450703249968427
4000000000.0 0.07393032562488365 -0.08360598015716612
