!Created with skrf (http://scikit-rf.org).
# Hz S RI R 50.0 
!freq ReS11 ImS11
400000000.0 -0.7600895269615353 -0.3942514938046361
420000000.0 -0.3792198056547018 0.7478662092637139
440000000.0 0.4058631340951085 0.6736819297649556
460000000.0 0.22069294701503384 0.6859903400808904
480000000.0 -0.5913486133837328 0.26468659465272365
500000000.0 -0.5344678003914982 -0.2516106001035841
520000000.0 0.4562599354024949 -0.242475971763703
540000000.0 -0.3955943214191485 -0.22726640290410985
560000000.0 0.4255121581154278 -0.0007751126561130109
580000000.0 0.3711354032370845 0.09476660675002521
600000000.0 -0.22239656331990235 -0.2774799597474667
620000000.0 0.34034568334455007 -0.10533989628308885
640000000.0 0.2115526914096549 0.3688343325562351
660000000.0 0.21557237359988665 0.4086692797445642
680000000.0 0.09301132177901894 -0.4671080506836543
700000000.0 0.2556973693599718 -0.39433995770316405
720000000.0 0.08065946707915618 0.4436544073775358
740000000.0 -0.045589166187616 -0.3991164818948862
760000000.0 0.3166489607984732 0.10649790390858788
780000000.0 0.28759926409552766 -0.07142696840554318
800000000.0 -0.11093709045089757 -0.23223176798925854
820000000.0 -0.15177847384699833 0.18173931319884548
840000000.0 -0.027454636899665565 -0.21056922202781203
860000000.0 0.028737621431173376 0.18314230071391974
880000000.0 -0.15250806480244444 0.03120157594937267
900000000.0 -0.05865494728569455 -0.10505097326513901
920000000.0 -0.059805071284487976 -0.05011462887778769
940000000.0 -0.05195611490596071 0.02558777609352612
960000000.0 0.03264037866805777 0.043608515867898
980000000.0 0.032198467940401924 0.039563630572329554
1000000000.0 -0.030638244887716312 0.051872298920162166
1020000000.0 -0.0837934712484294 -0.008921228228346878
1040000000.0 -0.008478917857469384 0.12716831647955976
1060000000.0 -0.12712254190316305 -0.11244311294059406
1080000000.0 0.05570697464601679 0.2011199976597846
1100000000.0 -0.24517431716219945 -0.04893576729067192
1120000000.0 0.28321593973582115 0.01921509178772935
1140000000.0 0.003737440346626437 -0.30894624745328403
1160000000.0 0.30026846617864666 0.12200866414777028
1180000000.0 0.07752665610064167 -0.32343855012952405
1200000000.0 0.10651895175356232 0.30652060387150987
1220000000.0 -0.33129298087378123 0.04435721518617047
1240000000.0 -0.2282960099353685 0.2773384052961142
1260000000.0 0.11215839226423728 0.3601428349576167
1280000000.0 0.3326789600528753 0.20889127600921048
1300000000.0 0.3904115908227356 0.12685661488463776
1320000000.0 -0.2986786071992861 -0.3024494547334
1340000000.0 -0.20649009329680873 0.3660870714315632
1360000000.0 0.3015871653901125 0.28290157708771013
1380000000.0 0.32083663926210565 -0.23284892608624738
1400000000.0 0.017641171943567145 -0.37574411203341845
1420000000.0 -0.23406429769483447 -0.26198188503510195
1440000000.0 -0.31660541907153456 0.10310057464547544
1460000000.0 0.17318190967642388 0.2520006622033962
1480000000.0 -0.17262792654245981 -0.22129528468060122
1500000000.0 0.047192524922818016 -0.239325410119544
1520000000.0 0.020023675454821314 0.20048542165845887
1540000000.0 -0.14982453077857177 0.043900126613155385
1560000000.0 0.08203138723017483 0.08002392476421928
1580000000.0 0.05638865390482531 0.06186638392828374
1600000000.0 0.06056144491162828 0.0016919082294819345
1620000000.0 -0.039778967628598394 0.028339026225347015
1640000000.0 -0.030424221438299804 0.0060125776047038094
1660000000.0 -0.0037388905052571407 0.009865209393516653
1680000000.0 0.0037272553792673147 0.003421245524768875
1700000000.0 0.003875190762901579 0.010768299347550235
1720000000.0 -0.005454609031007899 -0.02134302879027058
1740000000.0 -0.04651284748407837 -0.010822048663970905
1760000000.0 0.061516192512427716 0.049434516242770114
1780000000.0 0.1076834423223905 -0.018744572126295506
1800000000.0 -0.04791220414066661 -0.1418369669798335
1820000000.0 0.1795893041291981 -0.030074524049316587
1840000000.0 0.08435027103646536 -0.19648011119453562
1860000000.0 -0.011195006680313025 -0.2474796118485825
1880000000.0 0.13415865632573978 -0.2401949265034993
1900000000.0 -0.08699329607465038 0.28369100643159545
1920000000.0 0.29038335703225615 0.1388335586863174
1940000000.0 0.251792723206176 -0.24970243803333622
1960000000.0 -0.3349119046274425 0.19128301671354553
1980000000.0 0.396260289440389 -0.0929852587151272
2000000000.0 -0.40050879985339966 -0.12377670668889171
2020000000.0 -0.040386659936773754 0.42092661461681474
2040000000.0 0.3914732662759676 0.16007885835553237
2060000000.0 0.40675703335751473 -0.08763610133520486
2080000000.0 0.38047770332160274 -0.15609119828839818
2100000000.0 0.3438084405256959 -0.21222810618370244
2120000000.0 0.3114299158415538 -0.24857624918903246
2140000000.0 0.0656635923348811 -0.38681744054054046
2160000000.0 0.23715468621364497 -0.29328992620635436
2180000000.0 0.004858882749609573 -0.3617784638123174
2200000000.0 -0.13195192492782054 -0.3161511098518005
2220000000.0 0.3240167003292075 -0.07801758863193668
2240000000.0 0.32757369165308964 0.08889905043493931
2260000000.0 0.3289987497085567 -0.11654021236645898
2280000000.0 -0.013396304116725948 -0.3615601459915284
2300000000.0 -0.35586188856000267 -0.1368695229572581
2320000000.0 0.015426494327082256 0.41492817993100783
2340000000.0 -0.05186558576686172 -0.45256599100402983
2360000000.0 0.3648269993663798 0.3430992323932549
2380000000.0 -0.47043971274312363 0.28173252840899987
2400000000.0 -0.03056040528394393 -0.5933628042441904
2420000000.0 0.537856529600925 0.3469603751976967
2440000000.0 -0.6257018637939606 0.27132295848349236
2460000000.0 0.2348253257849722 -0.6762527822828104
2480000000.0 0.11910094192883801 0.731794957639222
2500000000.0 -0.12431039904925116 -0.7476050573902709
2520000000.0 -0.08099385285486595 0.7607685213552476
2540000000.0 0.42959540447312017 -0.6341331236044365
2560000000.0 -0.7137262827819182 0.26014434274132264
2580000000.0 0.6230540193413533 0.40759481412812715
2600000000.0 -0.19311659437483084 -0.6966287031854462
2620000000.0 -0.25749519990178144 0.6451439303425992
2640000000.0 0.3058326228041038 0.585268939801308
2660000000.0 -0.0585853829223128 -0.6148122215183448
2680000000.0 -0.3139270878897369 0.4750835296683146
2700000000.0 0.5134711249731638 0.09983599106951557
2720000000.0 -0.08092787138813408 -0.4766456258357174
2740000000.0 -0.30250735075897206 0.33612500938870965
2760000000.0 0.16547493588496934 -0.3934526738039636
2780000000.0 0.27438277325610844 0.29760543445702886
2800000000.0 -0.15071174035542578 0.3523857371186072
2820000000.0 -0.345075141820657 -0.10896123629757308
2840000000.0 0.3397439841844297 -0.06125156036207503
2860000000.0 -0.332845209116065 -0.06449203884664544
2880000000.0 0.18946549758951503 0.28147951137303184
2900000000.0 0.08372927485497576 -0.33718074069401055
2920000000.0 -0.19769452761623774 0.2956299517161473
2940000000.0 0.33369253559866036 -0.13457938995827295
2960000000.0 -0.30304701986660065 -0.18934894776606345
2980000000.0 -0.333893661480113 -0.09851684017516088
3000000000.0 0.2060016095760088 -0.2735405254838532
3020000000.0 0.04483774501363615 0.3382363677526312
3040000000.0 -0.31065614108635553 -0.14719496207869315
3060000000.0 0.17451052501165062 -0.2975507955802634
3080000000.0 0.2846693957759979 0.18869686341649763
3100000000.0 0.05423915649517337 0.3308941646904468
3120000000.0 -0.03314880860493718 0.3188428289184542
3140000000.0 -0.2863979819443623 -0.07549036560570162
3160000000.0 0.20468496500635883 -0.16589646979244607
3180000000.0 -0.2049926630586455 0.1224003347699408
3200000000.0 0.054726506231722954 -0.2094652055067993
3220000000.0 0.19099486121081838 -0.023747912385846535
3240000000.0 0.1653750672882858 0.03143858753757885
3260000000.0 -0.01168887947468606 -0.14025296613742982
3280000000.0 0.08862932840627312 0.06465121459811247
3300000000.0 -0.08070507115330404 0.01732042312681396
3320000000.0 0.06026390641970087 -0.008098702487996622
3340000000.0 -0.03460673322086138 -0.03172525882551383
3360000000.0 -0.037173957606835915 -0.024441678752117463
3380000000.0 -0.04753645597026808 0.012474066092783216
3400000000.0 -0.047621218004885627 -0.03618083216136847
3420000000.0 0.05107895439853661 0.05154474602900277
3440000000.0 -0.08282921015942027 0.009025144873192798
3460000000.0 -0.03513026979765483 0.08697537587836604
3480000000.0 -0.10239143719853591 -0.021554949998290548
3500000000.0 0.05347399964286189 -0.10677424456303929
3520000000.0 0.12188701705326634 -0.061819563001837184
3540000000.0 0.0025489800848402483 -0.15291556423940722
3560000000.0 -0.14279562592692577 -0.08036980879520768
3580000000.0 -0.07650379582132527 0.1542790868325128
3600000000.0 0.1293431487941492 0.11981920481780034
3620000000.0 0.15085250297571598 0.08788303237172745
3640000000.0 0.03164763333236665 0.17009702681014352
3660000000.0 -0.15718299641388733 0.060519237809041046
3680000000.0 0.05184623133647017 -0.15500649617645257
3700000000.0 0.10259697601720215 0.11961932082255046
3720000000.0 -0.14099542654048716 -0.0546079764687018
3740000000.0 0.14293764694299266 -0.012728796430787613
3760000000.0 0.06624189406574428 -0.1163782256421393
3780000000.0 -0.0021791070189839017 -0.1239793121821348
3800000000.0 0.11199111326416931 -0.008317635613061081
3820000000.0 0.06371651744281821 -0.08620694908270606
3840000000.0 0.060915272074488186 -0.08895129318304801
3860000000.0 -0.11966994540974696 0.009011417911717813
3880000000.0 -0.0888950079192632 0.10122798390918179
3900000000.0 -0.11946078633006778 -0.08808850377744351
3920000000.0 -0.06915083883313478 0.13654936729249026
3940000000.0 0.13689735027505776 -0.06655268983338727
3960000000.0 -0.13101985965669355 0.057856485379817225
3980000000.0 -0.04018442472654426 0.12125780466028145
4000000000.0 -0.044971577277778584 -0.09621307909058918
