!Created with skrf (http://scikit-rf.org).
# Hz S RI R 50.0 
!freq ReS11 ImS11
400000000.0 -0.5981286273741844 -0.6149068995542734
420000000.0 -0.6427378982208791 0.5414185226515584
440000000.0 0.18241781131355023 0.7654039756530416
460000000.0 -0.31350883209780517 0.644659533691618
480000000.0 -0.6160809016585281 -0.2154677710541525
500000000.0 -0.12750472568415763 -0.5752566197548244
520000000.0 0.4494951064629017 0.2594220728066101
540000000.0 0.3940298100216309 -0.24246156503159247
560000000.0 -0.18708530813706906 0.39671643616715935
580000000.0 0.367931507398352 0.15813817302186833
600000000.0 -0.35502898400623306 -0.07887626736844093
620000000.0 0.08144884607874044 -0.3606750051468728
640000000.0 0.4202332692669095 -0.009721655824901882
660000000.0 0.1679257996055937 0.429504587405734
680000000.0 -0.25132571568801987 -0.3951055205519001
700000000.0 0.40590370260682257 -0.21637345535937708
720000000.0 -0.05192667673303123 0.4353252955938102
740000000.0 -0.13668583383092497 0.3652978965194301
760000000.0 -0.2695254705344139 -0.22609031872877688
780000000.0 0.1470282390775193 0.28633271145279626
800000000.0 0.2631742928214448 -0.14065085449743142
820000000.0 -0.17054498092640272 0.15969765268910446
840000000.0 -0.01985259853582491 -0.17571330953230632
860000000.0 -0.1494147229538273 -0.032739138933794314
880000000.0 0.11475458034763729 -0.05659710766744301
900000000.0 -0.0987999713703427 0.04532930653428832
920000000.0 0.051803627283648 0.047682540043240296
940000000.0 -0.009349808162653782 -0.04838317452615967
960000000.0 0.055743043834120536 0.001579059607830301
980000000.0 -0.05354298487398554 -0.026394227679338952
1000000000.0 0.02123740980417532 -0.07794608276505514
1020000000.0 0.09181735858441706 0.06044045081361456
1040000000.0 -0.13605704462202517 -0.026181721106793104
1060000000.0 0.16871880936104713 -0.019937929089805687
1080000000.0 0.14522799310263076 -0.14749496774384413
1100000000.0 0.037668482378854874 0.24081067831674122
1120000000.0 -0.03275528625128905 -0.26844681153969635
1140000000.0 -0.1775302899189692 -0.22418230307636425
1160000000.0 -0.17877593986026502 0.23544108347357
1180000000.0 -0.2580344873813287 -0.17157506881385226
1200000000.0 0.14653113043238195 0.2955641830108631
1220000000.0 0.05667644788168869 -0.3458606607310501
1240000000.0 -0.3594534936768511 0.10693182589393341
1260000000.0 0.34769690427061634 -0.1694779947692342
1280000000.0 0.16895624703956022 -0.3479117875144402
1300000000.0 0.36411839250449307 -0.1574285365725361
1320000000.0 0.2141064665953509 -0.34778192602893243
1340000000.0 -0.3300272017830671 -0.25171763126308444
1360000000.0 -0.3514532078915665 0.20470421188461044
1380000000.0 -0.3275532252169755 0.22758224725777573
1400000000.0 0.3663507126805185 0.13394608681673387
1420000000.0 -0.1141731013819096 -0.3458334010680674
1440000000.0 -0.2821270920726779 0.1878068606094494
1460000000.0 0.2643787809765449 0.15568808478905327
1480000000.0 -0.23799126846780802 -0.13689605227650312
1500000000.0 0.2055632137521169 0.10850301093374705
1520000000.0 0.10562739066591252 -0.16229189914203948
1540000000.0 -0.019453900773049822 -0.15120969877719834
1560000000.0 0.06783562291069828 -0.10394188589402452
1580000000.0 -0.09704025384438421 -0.03191355991721667
1600000000.0 0.049666265156672315 0.058313872047314794
1620000000.0 -0.05362521489978964 0.022752387129238133
1640000000.0 -0.01629609873289035 -0.03488696843600299
1660000000.0 -0.012703443487320745 0.0058370759084128716
1680000000.0 0.006266257664938305 0.005213886871314592
1700000000.0 -0.021316053326234194 -0.008291160596560472
1720000000.0 -0.00024175236793175388 -0.032728037544457605
1740000000.0 -0.04379435215087381 0.02128321490667216
1760000000.0 -0.056133146433894165 -0.036469263929277324
1780000000.0 0.09047372751689679 -0.047778640047277485
1800000000.0 0.12857055754005484 -0.07053472485725867
1820000000.0 -0.12709011347686708 0.1247956622276121
1840000000.0 -0.195228989117931 0.07274458252148462
1860000000.0 -0.19664239219142068 -0.13938971991272583
1880000000.0 0.274967969144262 -0.01741557029184218
1900000000.0 -0.14913554129087092 0.2727371172922378
1920000000.0 -0.07545838346568885 -0.33324706733137593
1940000000.0 0.20321714940434926 0.30400793208187743
1960000000.0 -0.10693775241697982 -0.3645418397315611
1980000000.0 -0.3876874084748899 -0.009652490739007894
2000000000.0 -0.3976781008594516 -0.04504350849226722
2020000000.0 -0.39594393049854565 0.12634613639614856
2040000000.0 -0.02123748680624985 0.4311158490064815
2060000000.0 0.23519705577333325 -0.36628489004372317
2080000000.0 -0.4264132320965247 -0.01245861153571968
2100000000.0 -0.09394081404374033 0.3973793172631257
2120000000.0 -0.20171063945855014 0.33330194536170277
2140000000.0 -0.25983893835999367 -0.27033378957225473
2160000000.0 -0.11741500611944333 -0.34020645412400147
2180000000.0 -0.14037894351154367 -0.31816501670854863
2200000000.0 -0.13644144966389962 -0.30697282763187966
2220000000.0 -0.04500664339263156 -0.3238427543575817
2240000000.0 0.021889724339058097 -0.3232991347115219
2260000000.0 0.17045368059993532 -0.2815064723293613
2280000000.0 0.2653814472569436 -0.21717234791253942
2300000000.0 -0.23962249938045482 -0.280330975118864
2320000000.0 -0.04417042245390649 0.3985871259643126
2340000000.0 0.05004767309257059 -0.4364191277819071
2360000000.0 0.05519135362299509 0.47908845401963396
2380000000.0 -0.4037297102211149 -0.34960309024194525
2400000000.0 0.5266971053385253 -0.2569778902487586
2420000000.0 0.07565362241606206 0.631126071637182
2440000000.0 -0.6580479310794237 -0.1667422010138883
2460000000.0 0.6018794902182318 -0.3835451501436936
2480000000.0 -0.3389914822925454 0.6580602099781807
2500000000.0 0.3620751314000939 -0.6647321024526178
2520000000.0 -0.4895276506778824 0.5886765376613232
2540000000.0 0.664007993156145 -0.38362649350077044
2560000000.0 -0.7556139483042257 -0.08962199274095844
2580000000.0 0.462482374088095 0.5864954385753193
2600000000.0 0.11055987225681428 -0.7164824614364124
2620000000.0 -0.486586666257867 0.49828276363053053
2640000000.0 -0.010522400790422546 0.6624195453793258
2660000000.0 0.26954888806844435 -0.5615620680561181
2680000000.0 -0.42529870823428606 0.3936073545232128
2700000000.0 0.47598839864292436 -0.24531430459631748
2720000000.0 -0.43712207349094473 0.22369387079479366
2740000000.0 0.4454272204170363 -0.042957591017237375
2760000000.0 -0.33673219517288794 -0.24057961616323145
2780000000.0 0.3625526264431118 0.15099428808629162
2800000000.0 -0.2933880546251133 0.23437964040285522
2820000000.0 -0.2686618097918245 -0.2428036008837249
2840000000.0 0.26564257417645654 -0.22174233317295852
2860000000.0 -0.24280753515357853 0.23273025985025317
2880000000.0 0.3144240629916959 0.11545652583394528
2900000000.0 -0.06314796126704925 -0.33605315066438063
2920000000.0 -0.10254810170151005 0.3344624217164193
2940000000.0 0.17692828524704865 -0.30313380139474405
2960000000.0 -0.21905143964727877 -0.26278524489440463
2980000000.0 0.2560605878818055 -0.21681408734923496
3000000000.0 -0.16042589068391727 0.3021996502523303
3020000000.0 -0.3539669191739474 0.007745101513142613
3040000000.0 -0.34004984690884343 0.10110211396570452
3060000000.0 -0.34497481660266915 -0.0021936416945253666
3080000000.0 0.029804636861220216 -0.3250071052575966
3100000000.0 -0.1271420073312035 0.2826398920728752
3120000000.0 0.19585161782673738 -0.22595993584700347
3140000000.0 -0.061652864439982864 0.286125366114012
3160000000.0 -0.20121399488619224 -0.19781792166638124
3180000000.0 -0.2285025736367287 0.12087272284838083
3200000000.0 -0.10593054235129744 0.19655306183449078
3220000000.0 -0.16741349303181516 -0.08010937634060225
3240000000.0 0.050643894161243375 0.14651250415547978
3260000000.0 0.02139204946586273 -0.13398399941185457
3280000000.0 -0.09727248724918532 0.0652833100906001
3300000000.0 0.09165407053366433 -0.02400149535622139
3320000000.0 -0.06708845423348272 0.010461880657052901
3340000000.0 -0.034714543416845677 0.03069924872013452
3360000000.0 -0.03356973318706675 0.010259360877285063
3380000000.0 -0.02743041061258062 0.019107022457509403
3400000000.0 0.046800954332712204 0.010379062596153668
3420000000.0 -0.03088474158618976 0.06390194885538264
3440000000.0 0.04820701385569849 -0.0761202250871939
3460000000.0 -0.04913633301825458 -0.08814905914149983
3480000000.0 -0.0930206239742915 -0.04785992054190974
3500000000.0 0.07675359473971122 0.08626672444902785
3520000000.0 0.018267683047149978 -0.13425062037587243
3540000000.0 -0.10925058848131275 0.11808390728327264
3560000000.0 -0.06551132237941569 -0.16065513293613662
3580000000.0 0.07855401042261377 0.15661950800943583
3600000000.0 0.10091707908779006 0.14044244103221587
3620000000.0 -0.16506506702947105 0.043756168845384996
3640000000.0 0.1538002062486483 -0.0801795033617852
3660000000.0 0.028409007150505504 0.17536754113132502
3680000000.0 0.10975667173068042 0.14370659983945402
3700000000.0 0.14218303310167776 -0.1013273379565803
3720000000.0 0.0955632867069109 -0.12770495354259462
3740000000.0 -0.1421511724297137 0.027263037879879094
3760000000.0 -0.12791124912813584 -0.04454035371904926
3780000000.0 -0.12306032276913055 -0.035477029518033186
3800000000.0 0.05500302477006602 0.10719272115237954
3820000000.0 0.022862916603740586 0.10389719584080072
3840000000.0 -0.0884783479769987 0.03519919862629247
3860000000.0 0.09573646362763832 0.036352745911846764
3880000000.0 0.04699886714782446 0.11473846176917425
3900000000.0 0.11241913459821244 0.08154550223015034
3920000000.0 -0.08565506991844354 -0.10551520892181833
3940000000.0 -0.03565616895706984 -0.11856185594493501
3960000000.0 0.03615513295776898 0.10900430013593257
3980000000.0 -0.07822864402053174 -0.07722235715921956
4000000000.0 -0.08146776985542557 0.0641357490317817
