!Created with skrf (http://scikit-rf.org).
# Hz S RI R 50.0 
!freq ReS11 ImS11
400000000.0 -0.8126014850497291 -0.2775854643360374
420000000.0 -0.32285682425028545 0.774621225165017
440000000.0 0.3497900237545151 0.704893666044887
460000000.0 0.29951277073576305 0.6547956695002871
480000000.0 -0.46936819073846653 0.4503186459828313
500000000.0 -0.5780206343077477 -0.10346264373198336
520000000.0 0.5070628337421094 -0.10374349411956475
540000000.0 0.0731261137635074 -0.45397955325004485
560000000.0 0.19111779429863246 0.3918930253674929
580000000.0 0.3736969741793954 0.12447645332866254
600000000.0 -0.3583375784295575 0.04838129271557525
620000000.0 -0.12094193700327716 -0.33674060898066854
640000000.0 0.3811854649270107 -0.14985767493140278
660000000.0 0.2369158735679572 0.37833892400199354
680000000.0 -0.20582211497110314 -0.40733591988274237
700000000.0 0.3087581186242414 -0.3193247889836191
720000000.0 -0.41979076555933703 -0.030629399387397668
740000000.0 -0.28502149520154313 -0.26268308897970005
760000000.0 0.22049338142456404 -0.2802246518312469
780000000.0 0.21185174224608527 0.2543374386464719
800000000.0 0.25750323435640804 -0.13984495923944193
820000000.0 -0.03998085243416751 -0.24130028875059684
840000000.0 0.1565726874346561 0.12088317561742933
860000000.0 -0.10062420920816266 -0.1256194591415982
880000000.0 -0.07207640576320798 0.09394653896951027
900000000.0 -0.037680718473720266 0.07765066334472495
920000000.0 0.018703993904178005 0.05144349609114107
940000000.0 -0.008621225376125505 -0.04231701177530726
960000000.0 0.018326758436438603 -0.05829161424400675
980000000.0 -0.03306437150615767 -0.0661666233612308
1000000000.0 0.002660483528590553 0.09176617819794562
1020000000.0 -0.08860542432403846 -0.05554486463634907
1040000000.0 0.10580460036033618 -0.0593150997975379
1060000000.0 -0.1029464609425322 -0.11488444303607034
1080000000.0 -0.14057650513189984 -0.11714813234254061
1100000000.0 0.076841319628332 0.20248247489474064
1120000000.0 0.18930853062444844 -0.15452951821197572
1140000000.0 0.23915460517723747 0.1282616665339076
1160000000.0 -0.28739534801839967 0.06823198595557149
1180000000.0 -0.29708254329423023 0.07491192629608406
1200000000.0 0.15257528015066932 0.2853758912845472
1220000000.0 0.21554375671493134 -0.27769680271044317
1240000000.0 -0.31324327892559006 0.21452995167063355
1260000000.0 0.29373951348895355 -0.2642719335045648
1280000000.0 -0.3459387484239591 -0.20256388417278604
1300000000.0 -0.3763828937068861 0.1449864455092717
1320000000.0 -0.31315936595250715 0.25549140733300546
1340000000.0 -0.21269077989045576 0.35059712477238536
1360000000.0 0.2782030117692576 0.2940344098200108
1380000000.0 0.3905487999163857 -0.03060273030555669
1400000000.0 0.17567316498795213 -0.3277161389916479
1420000000.0 0.14142958889720675 -0.32092088695800935
1440000000.0 -0.06762425302374671 -0.32891798688031076
1460000000.0 0.10707513568946689 0.2970348631325424
1480000000.0 -0.23712446032967496 -0.15565547197097185
1500000000.0 0.241548942634159 -0.03160021108499614
1520000000.0 -0.04777975802606795 -0.20096840440843436
1540000000.0 0.0460306554697038 0.16023890322521084
1560000000.0 0.10382195875385583 0.08690905627653106
1580000000.0 -0.105948461639717 0.03646559645313595
1600000000.0 -0.06271679577032857 -0.05757812467879813
1620000000.0 0.04057289390782571 -0.04952108246919656
1640000000.0 -0.029226800480282457 -0.023770943034074926
1660000000.0 -0.012174224286273724 0.0026298495672900718
1680000000.0 -0.004387405543265058 0.006200105752823513
1700000000.0 -0.002324944750843694 -0.02313889908775475
1720000000.0 0.03736724697675147 -0.002530572368899002
1740000000.0 -0.05273098109269156 0.0070851523241183025
1760000000.0 0.015204247058899964 0.06759962314603452
1780000000.0 -0.05758695483866141 0.07724279768880032
1800000000.0 0.03021007626903003 0.13213040566809403
1820000000.0 -0.0003534410782801753 0.16855031185857303
1840000000.0 -0.2008728530001848 -0.03116491267293497
1860000000.0 -0.03173774870427365 -0.23939918754314005
1880000000.0 0.27271014267749105 0.05562539358068507
1900000000.0 -0.2099464221296283 0.22775876045076232
1920000000.0 0.262115272363547 -0.2142007216878932
1940000000.0 -0.36664260871003257 -0.015425407624808842
1960000000.0 0.37848097154854476 0.0857069407996486
1980000000.0 0.0359425705350167 -0.3996123857172943
2000000000.0 -0.3409153085152111 -0.2367965166606072
2020000000.0 -0.369507169398943 0.213728613790043
2040000000.0 0.2743767979112415 0.3363871315941005
2060000000.0 0.2888634026521241 -0.3172450264424313
2080000000.0 -0.0004390074183048339 -0.4188872429350128
2100000000.0 -0.2334244951978086 -0.33468107049328494
2120000000.0 -0.3158617319520831 -0.2416408652308517
2140000000.0 -0.37383840481208136 0.08220345634060075
2160000000.0 -0.10975393152318937 -0.34391938888793744
2180000000.0 0.16672499430851018 -0.30006615248673274
2200000000.0 0.3303684075889057 -0.02865536275216118
2220000000.0 0.15539480564393013 0.2901487023687908
2240000000.0 0.23212943460350113 0.24298395829518749
2260000000.0 0.2892931726940132 -0.18357168935918813
2280000000.0 -0.1472639001894556 -0.3178773038863815
2300000000.0 -0.3648192571230093 -0.027319151002303907
2320000000.0 -0.03088733257335157 0.39367481422129913
2340000000.0 0.15034885912517687 -0.407354704950947
2360000000.0 0.0444225247284031 0.4762251630149868
2380000000.0 -0.46878603532985286 -0.24238534656536506
2400000000.0 0.4189711882524154 -0.3959866925363702
2420000000.0 0.2997327480517098 0.5454471972461064
2440000000.0 -0.6517957195732395 0.11850083722961867
2460000000.0 0.34222869215320245 -0.6053410749361778
2480000000.0 0.07260467687643424 0.7168394450362463
2500000000.0 -0.22319287499758714 -0.7017746000076418
2520000000.0 0.09966984893759145 0.7384573648110926
2540000000.0 0.16385358412815432 -0.7272478462917246
2560000000.0 -0.6017135924572072 0.42831593549437097
2580000000.0 0.7189834668066457 0.09049112919564968
2600000000.0 -0.41935851896676524 -0.5646384095967018
2620000000.0 0.02397187475150196 0.675075837798681
2640000000.0 0.43435092183627433 0.47228288639389476
2660000000.0 -0.18838135163972874 -0.5726651418346498
2680000000.0 0.03433136408976297 0.560909346993567
2700000000.0 0.08654242617983887 -0.5109136843224884
2720000000.0 -0.1549532800511263 0.4507184958941474
2740000000.0 0.19794727888092364 -0.3920163653847916
2760000000.0 -0.11334239450278352 0.3905870871082698
2780000000.0 -0.03806530532693453 -0.37836934254961524
2800000000.0 0.19991488010153147 0.3005783120745514
2820000000.0 -0.30345760708514047 -0.17216293284019435
2840000000.0 0.3438275062971386 0.020132081411565608
2860000000.0 -0.25364455310787376 0.23562331332150133
2880000000.0 0.05003371662988563 -0.3430146156520424
2900000000.0 -0.11329991884586198 0.328514306031671
2920000000.0 0.30661638805708535 -0.1661073611821211
2940000000.0 -0.1359940681739339 -0.3207999985536216
2960000000.0 -0.1728377964029138 -0.30113209087504383
2980000000.0 -0.05105088522753864 -0.3462571268269985
3000000000.0 0.22336763096013615 -0.2743520752928457
3020000000.0 0.34812202476082016 -0.0614271613296643
3040000000.0 0.15210849091628903 0.3117327145739815
3060000000.0 -0.323236022982397 -0.10610869100891751
3080000000.0 0.3192621213712132 -0.09216003958031972
3100000000.0 -0.16496624894775516 0.2795508580021394
3120000000.0 -0.11773714496403413 -0.29257850022620535
3140000000.0 0.12309906332407587 -0.27761187845181234
3160000000.0 0.00674718600853671 0.28178815230975446
3180000000.0 -0.17297294941012908 0.18697530250906555
3200000000.0 -0.1723546160680575 -0.14378512991633163
3220000000.0 0.15543826317008153 -0.11871548662555671
3240000000.0 0.13628408446434884 0.09515532231602107
3260000000.0 0.036639056605045954 0.1310497666248366
3280000000.0 0.023531498020218252 0.10281397270614252
3300000000.0 0.03201015521367082 0.0711106882355214
3320000000.0 -0.05138524472031946 -0.021928407593326746
3340000000.0 0.036901588565179215 -0.016261640106192413
3360000000.0 0.03393663720945286 0.004379722575967714
3380000000.0 0.007654139104398118 -0.03577187620530476
3400000000.0 0.01214486073165741 0.04327891997570738
3420000000.0 0.005546525612696998 -0.05672348941693258
3440000000.0 0.05535503316325065 0.04629752123066472
3460000000.0 -0.03394038708913053 -0.07823296608071152
3480000000.0 -0.048795674222078624 -0.08457254006349134
3500000000.0 0.018229462557486246 -0.10997358211432055
3520000000.0 0.12563755746939334 -0.026640669430798236
3540000000.0 0.027680707566971264 -0.1424334776894944
3560000000.0 -0.10920952592083408 -0.11154966742742817
3580000000.0 -0.16236904966420632 -0.01660171268736752
3600000000.0 -0.11371205185841333 -0.1263305776274242
3620000000.0 -0.01951655537553965 -0.1768288918055449
3640000000.0 0.09861694811218571 -0.15366399787487087
3660000000.0 0.0847008570671143 -0.16533619180045353
3680000000.0 0.1064966640645006 -0.14891570184026726
3700000000.0 0.10558288068190627 -0.14279989047719494
3720000000.0 0.15862263525515213 -0.05055924476959398
3740000000.0 -0.0696383469032985 0.13717502672817894
3760000000.0 -0.12600154022448204 0.061536543592926485
3780000000.0 -0.05981753945621649 -0.11823439657419038
3800000000.0 0.12427951271593643 -0.026062269692255675
3820000000.0 0.05373844835857305 0.11363883584941467
3840000000.0 0.02639822714524393 0.11790400907078456
3860000000.0 -0.10666503049569367 -0.0516709076626307
3880000000.0 0.10354460655911654 -0.06645332339186358
3900000000.0 0.030441057367811965 -0.12573345365242986
3920000000.0 0.13032221026321505 0.033030405964666935
3940000000.0 0.0888465172522753 0.10301860713546708
3960000000.0 0.056864420710694044 0.11935181623345763
3980000000.0 0.0831232461865386 0.09199566687653656
4000000000.0 0.022580472401701846 -0.10866381919289073
