!Created with skrf (http://scikit-rf.org).
# Hz S RI R 50.0 
!freq ReS11 ImS11
400000000.0 -0.7054582365670856 -0.49104746718455944
420000000.0 -0.5354499212552539 0.644022451139148
440000000.0 0.02949392663861399 0.7814964278742841
460000000.0 -0.08162010530646414 0.7099226832802686
480000000.0 -0.6469819805553808 0.059853745722347924
500000000.0 -0.324328590983245 -0.49100396422855996
520000000.0 0.48836604308618614 0.1829675895917265
540000000.0 0.31211113192608825 -0.3404079217479498
560000000.0 0.014151649611287327 0.43665324804921674
580000000.0 0.10093376488219263 0.38298053201638954
600000000.0 -0.15967284248369018 -0.33338118500646585
620000000.0 -0.09373350431958048 -0.3564500404689023
640000000.0 0.33225742156794585 -0.2467735709580248
660000000.0 -0.14217238991166917 0.42951270832601723
680000000.0 -0.21983170896814058 -0.4167188206950677
700000000.0 0.13119676043476744 -0.43412715935755913
720000000.0 0.1436352249216955 0.4105757648036732
740000000.0 0.383852212738924 0.04568135294577358
760000000.0 -0.33924759680157623 0.03973448255539836
780000000.0 0.2033289013493572 0.23763302148095325
800000000.0 -0.05722839615051446 0.27877404589692195
820000000.0 0.2371721726390926 0.02096162598675099
840000000.0 -0.1482567427467684 0.12573067216696426
860000000.0 0.15535199800104574 0.02164628549653495
880000000.0 -0.09342512654258704 0.06622365843666139
900000000.0 0.08664220135211853 -0.0006044589360177635
920000000.0 0.010910184675658819 -0.051849484061045385
940000000.0 0.04485991136011047 -0.006000587506488492
960000000.0 -0.06360861259231249 -0.008937659825717858
980000000.0 0.05313469254059145 -0.05379330932538704
1000000000.0 -0.025513510578688652 -0.08710075862843918
1020000000.0 0.10992624498712975 -0.028169084763610325
1040000000.0 -0.08263556656057552 -0.1083171523636632
1060000000.0 0.1754501850476031 -0.006965870580837867
1080000000.0 -0.18687220223610954 -0.08399696751410365
1100000000.0 0.2339937702568953 0.029635457247357257
1120000000.0 -0.19016013532143974 -0.17404453110861462
1140000000.0 0.05315137100972363 -0.2668023051666274
1160000000.0 -0.1890885852451926 0.2254775880452407
1180000000.0 -0.1366237853093916 0.2770996955927334
1200000000.0 0.3166125434562992 0.07889322061398081
1220000000.0 -0.13001962215536159 -0.3245663790181537
1240000000.0 -0.2664979724444585 0.25620497435274486
1260000000.0 0.3776065742997532 -0.06452966792619622
1280000000.0 0.003951458135797676 -0.38911934489500954
1300000000.0 0.22218727153890905 -0.33330588723298915
1320000000.0 -0.21951505932291934 -0.34719055108329777
1340000000.0 -0.40597357496719927 -0.07609956952197307
1360000000.0 -0.25367861594282515 0.3185133597382772
1380000000.0 -0.10234107908729197 0.3851737428840801
1400000000.0 0.3699015397528996 0.1119581726005755
1420000000.0 -0.12970365644012244 -0.3445837027948398
1440000000.0 0.12147551362677443 0.3200362482115834
1460000000.0 0.15562214416069417 -0.2609285743583096
1480000000.0 -0.084591576538135 -0.25441842198178743
1500000000.0 -0.15390958972482954 0.18126421836362452
1520000000.0 0.1946109277588234 -0.06401537669683215
1540000000.0 0.09554130298406148 0.1353938037921823
1560000000.0 -0.11556564523937547 -0.054527539293653116
1580000000.0 -0.03347229970202009 -0.09004348508732986
1600000000.0 0.07255438354707343 -0.010575037301641683
1620000000.0 -0.04081337765480277 0.04458415936850997
1640000000.0 -0.0415818593282909 0.018271549639690167
1660000000.0 -0.0190729340405218 -0.016645307306657968
1680000000.0 0.009421036426247175 -0.006807711351601641
1700000000.0 0.006152381964862813 0.014535552923302398
1720000000.0 0.019664975137607423 -0.028008663291527555
1740000000.0 0.048387344878368634 0.018128489274650782
1760000000.0 -0.058009354841124044 -0.038331474474364656
1780000000.0 -0.09162497687386198 0.016613713856251208
1800000000.0 -0.12670357330675164 0.019561607334486857
1820000000.0 0.03227426270978663 -0.1604321356214957
1840000000.0 0.09237301671775996 -0.18610463783269227
1860000000.0 0.0675154728054821 -0.24645479541535104
1880000000.0 0.24986635259653592 -0.14827877397883135
1900000000.0 0.053658027464193916 0.31170453136398174
1920000000.0 -0.07032763092562413 -0.3332018731871319
1940000000.0 -0.108686231897829 0.3464937761345006
1960000000.0 0.3428301051226712 -0.1633240551689398
1980000000.0 -0.008131261436886441 -0.39202613897480393
2000000000.0 -0.18597480251424797 -0.3628702961165225
2020000000.0 -0.3775299360577493 -0.1877432450110786
2040000000.0 -0.2255047344809632 0.3692443175285826
2060000000.0 0.4288945757279632 -0.04489393631072542
2080000000.0 -0.04763679315468824 -0.4181771669430837
2100000000.0 -0.3874227904686283 -0.12381999813504582
2120000000.0 -0.391771459583948 -0.02350221769317532
2140000000.0 -0.36873825064385773 0.08895251546485898
2160000000.0 -0.12457278328676832 -0.3410691284476235
2180000000.0 -0.01832638349318537 -0.3457930327488779
2200000000.0 0.13165900660675842 -0.3026541399691081
2220000000.0 0.3149710586306877 -0.0839040835117325
2240000000.0 0.23154169706427466 -0.23950086173555973
2260000000.0 -0.02047467706579055 -0.33564321913730183
2280000000.0 -0.08207518563568764 -0.3359781352132474
2300000000.0 -0.29306233196129305 -0.2187744381797494
2320000000.0 -0.26240538111674455 0.2981576498359835
2340000000.0 0.2776634242847927 -0.33528204047152255
2360000000.0 -0.03723603254267364 0.4761464650376817
2380000000.0 -0.4505346726652703 -0.27526267148625116
2400000000.0 0.5235826844258231 -0.24971932074056155
2420000000.0 0.09217008192299386 0.6245512904163194
2440000000.0 -0.6640834534152663 -0.12056322510393883
2460000000.0 0.49866285434618746 -0.503973813461626
2480000000.0 -0.1390463695093039 0.7210638622960608
2500000000.0 -0.04157753318868644 -0.7469297797882822
2520000000.0 -0.03610729377684717 0.7491039307065259
2540000000.0 0.25037802143695287 -0.7044619079321693
2560000000.0 -0.6284252186390022 0.40296685771229507
2580000000.0 0.7082277157123867 0.19499548741497297
2600000000.0 -0.38733733955021576 -0.5984689856948342
2620000000.0 -0.12949258668792096 0.6745068784485597
2640000000.0 0.15216609627207026 0.6375882328707241
2660000000.0 0.175370527862199 -0.593387286824182
2680000000.0 -0.3457951437821983 0.460919541666238
2700000000.0 0.4563771967235508 -0.27420612515422066
2720000000.0 -0.46051069204409756 0.15927704117292285
2740000000.0 0.44754661007023216 -0.01075244257446721
2760000000.0 -0.3959739601792079 -0.12678045615343195
2780000000.0 0.3475619673483764 0.18204717449926552
2800000000.0 -0.37737420976125474 -0.00923787444492988
2820000000.0 0.09501543918144456 -0.35413303028131377
2840000000.0 0.3552156806496509 -0.03775298129239349
2860000000.0 -0.07318925511179501 0.3425022589422627
2880000000.0 -0.014133174017460271 -0.34267412834707645
2900000000.0 -0.3391611954067762 0.043665772026710244
2920000000.0 -0.0002454767972498499 0.3447290648079794
2940000000.0 0.3477556879441287 0.026860663930282008
2960000000.0 -0.005472768977909711 -0.35098960640976484
2980000000.0 -0.06988313046996987 -0.34437139363175523
3000000000.0 0.2897670590875505 -0.19306201322966884
3020000000.0 0.3057727290397039 0.16321301983752015
3040000000.0 -0.17715929375083864 0.29551342574680095
3060000000.0 -0.3267477209875492 -0.09723547154165112
3080000000.0 0.19740046768234648 -0.27264209326412564
3100000000.0 0.2546453136274797 0.20475465172594862
3120000000.0 -0.25639633034665077 0.1788029852584213
3140000000.0 -0.17650542049735146 -0.23544498467387173
3160000000.0 0.14287910780137406 0.2306396119487543
3180000000.0 -0.22664202354489232 0.09576082466126552
3200000000.0 -0.07783745985642287 -0.20722338313406613
3220000000.0 0.14290992711454215 -0.1331790271286796
3240000000.0 0.1535749795518586 -0.06922471447816593
3260000000.0 0.13843390519548404 0.0059785628905226285
3280000000.0 0.059894156117353235 -0.09100256356374505
3300000000.0 -0.06556099401545361 -0.04982432874354378
3320000000.0 -0.06031573418543448 0.00606423993277768
3340000000.0 0.027579445083110266 0.03592805302430838
3360000000.0 0.03197811976972926 -0.02572268325711871
3380000000.0 -0.00574773031087862 -0.04263941938421533
3400000000.0 -0.04645654749794182 0.012480023925660508
3420000000.0 -0.02983357289919155 0.046714160059585355
3440000000.0 -0.06283174836929444 0.01671495253368131
3460000000.0 0.07953304622231079 -0.00785370442071387
3480000000.0 -0.010056468942342968 0.09706322984283777
3500000000.0 0.1165694375316677 0.01906309690305719
3520000000.0 0.004766921853365071 -0.13573758958305837
3540000000.0 -0.1333107624374407 0.07226911929770678
3560000000.0 0.12165135918208383 0.10616668226521525
3580000000.0 0.16545694303571806 0.007892836936813781
3600000000.0 0.022671788761165563 0.1662152101498849
3620000000.0 -0.16957865252340024 0.028632413301854835
3640000000.0 -0.169896388917913 -0.053393896246873504
3660000000.0 -0.1358550464065087 0.12020750034264818
3680000000.0 -0.169595645716266 0.05376368137621986
3700000000.0 -0.09420382597022187 -0.14631222908155556
3720000000.0 0.12754444032351833 -0.11462137720425551
3740000000.0 0.15492690789027436 0.05488616310664547
3760000000.0 -0.11618498335603385 -0.09880756496011375
3780000000.0 0.06520087504573821 0.1222335580459541
3800000000.0 0.03430958500044373 0.11814362612326584
3820000000.0 0.059998958719782586 -0.09474886615894078
3840000000.0 0.017603625326829728 -0.10625893141015744
3860000000.0 -0.11233046782066902 -0.01208972971446207
3880000000.0 -0.08095703054260661 -0.09232727090697711
3900000000.0 0.0732077557429803 0.10887186774640296
3920000000.0 -0.019386613510823523 0.13287656346033666
3940000000.0 -0.11967513315848878 0.05897323845959833
3960000000.0 -0.1195048994411095 0.04549128336824826
3980000000.0 -0.09306786605087199 0.07138817032276258
4000000000.0 -0.10057135020793362 -0.021597278689526888
