!Created with skrf (http://scikit-rf.org).
# Hz S RI R 50.0 
!freq ReS11 ImS11
400000000.0 -0.8566720036361307 0.10708221168536433
420000000.0 0.0843603421776316 0.837707793861322
440000000.0 0.674320404768596 0.40320728786356874
460000000.0 0.5072386665776016 0.5109870904318403
480000000.0 -0.5188186358589072 0.3872990692237897
500000000.0 -0.4606811715748168 -0.3661721090559875
520000000.0 0.39152391515570784 0.35285033860360154
540000000.0 -0.11804958305515592 -0.45416847055620213
560000000.0 0.16414214872457134 0.4046878790432376
580000000.0 0.1619714511714263 0.3611990735849094
600000000.0 -0.08046339637095823 -0.35813868845037294
620000000.0 -0.04996231437110862 -0.36301993492318285
640000000.0 0.36270274810423614 -0.18854730201576322
660000000.0 0.08414874889313469 0.44181420998416715
680000000.0 0.033268995920053536 -0.46121785536460314
700000000.0 0.1532025693875139 -0.432470429400555
720000000.0 0.14218637567987208 0.4151058359532908
740000000.0 0.3476008749413632 -0.18377000860784176
760000000.0 -0.08524785516257415 0.3304827719782011
780000000.0 0.22528331000621335 -0.2248781392715518
800000000.0 -0.1533575220151358 -0.23478753475913106
820000000.0 0.029744623569501156 -0.22951687144072538
840000000.0 -0.10819633014360831 0.15677126951811945
860000000.0 -0.039729028778092326 0.15616851518588473
880000000.0 0.12462750143755937 0.005839652155227831
900000000.0 0.08483123125356869 -0.038785826104859984
920000000.0 -0.057564763414866944 -0.004763368524767238
940000000.0 -0.040179864904120344 -0.0164266246804706
960000000.0 0.0520900467285137 0.017424146379678575
980000000.0 -0.005912206214009272 0.0661667213112145
1000000000.0 -0.05449599162162527 -0.062311224212742926
1020000000.0 -0.09868306959497809 0.056297767470795526
1040000000.0 -0.12686990555997535 0.02586735853461403
1060000000.0 0.01829339533906123 -0.16553013412521653
1080000000.0 0.038688601116005625 0.18964132712855564
1100000000.0 -0.01538907802625497 -0.22386854806617987
1120000000.0 -0.15012186615743844 0.2058023265942554
1140000000.0 -0.2107507612948458 0.18050289419589655
1160000000.0 0.29574889846580343 0.049005898730823144
1180000000.0 0.30413841844675454 -0.09354763781465873
1200000000.0 -0.32433471561699784 -0.06216557270162509
1220000000.0 0.04543291111919184 0.351017827896705
1240000000.0 0.3446560969058499 -0.14644368063561664
1260000000.0 -0.3297129004615522 -0.20861200201943672
1280000000.0 -0.2972477082059467 0.25907046801064126
1300000000.0 -0.39021445566059526 0.09372910428815606
1320000000.0 -0.27215567739277974 0.3072460918919237
1340000000.0 -0.17546298809897182 0.377617617032289
1360000000.0 0.3470331652279514 0.22765400248344117
1380000000.0 0.40194621482431303 -0.04950173033122279
1400000000.0 -0.05645963501762638 -0.38701353236148534
1420000000.0 -0.36342927515508994 0.06174360454356575
1440000000.0 0.06529416351418126 0.3414663614158876
1460000000.0 0.12891587556625195 -0.29065799453081764
1480000000.0 -0.19888439300856284 0.20381812366303573
1500000000.0 0.1464642609555576 -0.19835285456812415
1520000000.0 -0.1895368001974871 -0.08556237775462328
1540000000.0 0.11209563156750012 0.12183822698426618
1560000000.0 -0.03032689472462432 0.12877601222156485
1580000000.0 -0.018198397219241755 0.10997181611012256
1600000000.0 0.009687863549847178 -0.08926375503647889
1620000000.0 -0.03861969473441441 0.05746449845089406
1640000000.0 -0.035924978160722126 0.024484412829488232
1660000000.0 0.011708830371578202 0.013097775114627353
1680000000.0 -0.007420974023003268 -0.006902665760784902
1700000000.0 0.022280873598571126 -0.01116503279690994
1720000000.0 -0.0014911488982513482 -0.0363152485334882
1740000000.0 0.009462737876879337 -0.0534424665188553
1760000000.0 0.04026904821234835 -0.0627642871545829
1780000000.0 0.10016493392416098 0.030743167543344087
1800000000.0 -0.02976671585758917 0.13881994330157155
1820000000.0 -0.10100325427620095 -0.1495645832766834
1840000000.0 0.15900105704636208 -0.15334681782758025
1860000000.0 0.21790105782196498 -0.1490654419500403
1880000000.0 0.2910415906372983 -0.054245177932396575
1900000000.0 -0.08461078791280024 0.30973122100541367
1920000000.0 0.2159545822143712 -0.2694987479809193
1940000000.0 -0.3655978146781316 0.0532844934787366
1960000000.0 0.2949346364427127 0.25120988179305265
1980000000.0 0.2524770035647169 -0.3111786872204947
2000000000.0 -0.20996863087043052 -0.35311730005600495
2020000000.0 -0.41376791342511454 -0.05437618067016261
2040000000.0 -0.29327298039302013 0.30302813418300384
2060000000.0 0.14755367143518686 0.3944362180502019
2080000000.0 0.41481848284962347 0.009537265705802935
2100000000.0 0.15451323281263857 -0.3711159243640221
2120000000.0 -0.1194864556719452 -0.3655900293823942
2140000000.0 -0.30168508723955184 -0.2061493278197264
2160000000.0 0.2726867983786483 -0.2070377134614327
2180000000.0 0.3256318252473222 0.02192480043369581
2200000000.0 0.2849828803549352 0.13354422099611976
2220000000.0 0.13012588225853608 0.28095290050260335
2240000000.0 0.22236680649997545 0.22233097076558658
2260000000.0 0.2544091626543927 0.1833289221743413
2280000000.0 0.3228694280567701 -0.0017955870989189273
2300000000.0 0.21571516333594548 -0.2601201622455746
2320000000.0 -0.2504116847429093 -0.26889946370249207
2340000000.0 0.14904742348657404 0.3762159292748845
2360000000.0 -0.3252056343321432 -0.3108040225516586
2380000000.0 0.4569988722950708 -0.19608571399997
2400000000.0 0.11070821774324843 0.5317845067029614
2420000000.0 -0.5881634497458909 -0.024070948967566726
2440000000.0 0.23049516730524044 -0.5869464965647876
2460000000.0 0.27470385795020663 0.6075371383864724
2480000000.0 -0.568127082171941 -0.40235873445751025
2500000000.0 0.6213718015724908 0.3568937809369722
2520000000.0 -0.5824230608417682 -0.4374888656279845
2540000000.0 0.3981003032962697 0.6143522079715746
2560000000.0 -0.17491776601654344 -0.7033214736903802
2580000000.0 -0.20342666854778832 0.682299374062907
2600000000.0 0.4201180848504423 -0.5486039524008017
2620000000.0 -0.659756258831643 0.11876961416266771
2640000000.0 -0.40886450111459155 0.494316163728479
2660000000.0 0.5906616086916759 -0.14784620382903685
2680000000.0 -0.5696996309176657 -0.015841963641296725
2700000000.0 0.5091516963904456 0.15409487988324047
2720000000.0 -0.43197992191344464 0.23041661284302092
2740000000.0 -0.3165764461061694 -0.3163247790246911
2760000000.0 0.23514140498078573 -0.3413156233767426
2780000000.0 0.15693652371931222 0.36004670414776696
2800000000.0 -0.015104350924431237 -0.37854402366308826
2820000000.0 0.1340872075216337 0.34714468653508884
2840000000.0 -0.3620253819459997 -0.07360293568355475
2860000000.0 0.23150454523303676 -0.2852302060657827
2880000000.0 -0.16453148370900017 0.3226506855068744
2900000000.0 0.3599731301978314 0.0322972200098944
2920000000.0 0.197312617693678 -0.30636385586647075
2940000000.0 0.017254430362107373 -0.36742444573486865
2960000000.0 -0.22962653547076242 -0.28832366046213664
2980000000.0 -0.05042417050971897 -0.36417232737102573
3000000000.0 0.32242867585785645 -0.1801981427407435
3020000000.0 0.2681560051839348 0.25175005248505167
3040000000.0 -0.30202865267576634 0.20262258800886573
3060000000.0 -0.16879232656207954 -0.3187064160291834
3080000000.0 0.35138871753047435 0.018025231055498192
3100000000.0 -0.12795899884131937 0.3160471545830299
3120000000.0 -0.3025685706313105 -0.12277340938456924
3140000000.0 0.04809057836167123 -0.3062681287550607
3160000000.0 -0.12161169272599431 0.25792527331048765
3180000000.0 -0.17428100989627252 -0.1938711862513411
3200000000.0 0.2129472493679865 -0.09750206098915386
3220000000.0 0.1774241058016668 0.1059369407855362
3240000000.0 0.10828477817227113 0.1379252586494866
3260000000.0 -0.07001917915796563 0.12345475190446356
3280000000.0 -0.11020449235437481 -0.020732330115229514
3300000000.0 0.09030037951193076 -0.012015651453842304
3320000000.0 0.058434732443553745 -0.04369033171057877
3340000000.0 0.0015118855975237318 -0.05840418261226405
3360000000.0 -0.050008619061552885 0.0030562016049886643
3380000000.0 0.046432915559716445 0.006647307396569632
3400000000.0 -0.04750238826145541 0.00040354738087743206
3420000000.0 -0.03679658734255452 0.03692957511384272
3440000000.0 0.06241279268843557 -0.003608356052531091
3460000000.0 0.04979364629587813 0.06286813063679228
3480000000.0 -0.00041563825741816753 -0.09813314120659967
3500000000.0 -0.11048882141461214 0.025872968947114945
3520000000.0 -0.12441545062042289 0.03190799150122987
3540000000.0 -0.08695346048089439 0.11559211409360354
3560000000.0 0.1300899700395071 0.09228170020597021
3580000000.0 0.06745533392803592 -0.1578463970729987
3600000000.0 0.14266811582769545 -0.09799860865828347
3620000000.0 0.16657419702371662 -0.050080561452765585
3640000000.0 0.11039459070541167 0.13225225829383058
3660000000.0 -0.17066448471073734 -0.008428616556445683
3680000000.0 -0.025333059946915308 -0.1692484328194386
3700000000.0 0.15337338927609973 -0.0795932260438943
3720000000.0 0.16139357662396547 -0.05913935152513497
3740000000.0 0.14291687632178487 -0.07965177546869452
3760000000.0 -0.1251170320951272 -0.0820918701519796
3780000000.0 -0.13450652398575516 -0.028856923951474135
3800000000.0 -0.0523747789064043 -0.12127051674828462
3820000000.0 -0.09138697154160451 -0.09053004727434946
3840000000.0 0.07519858588966838 -0.09106142569658078
3860000000.0 -0.08357984631441606 -0.0809574478541763
3880000000.0 -0.03961018153865191 0.11759640078558979
3900000000.0 0.07246781939151076 0.11858317116933279
3920000000.0 0.13666142923509525 0.050153212853972735
3940000000.0 -0.0021370628087757654 -0.14451708906818772
3960000000.0 -0.10017118464408016 0.09061920820444043
3980000000.0 0.0454744332588378 0.11078694169594894
4000000000.0 -0.09898682850202803 0.026261679574826124
