!Created with skrf (http://scikit-rf.org).
# Hz S RI R 50.0 
!freq ReS11 ImS11
400000000.0 -0.7196073698865291 -0.47458649524061375
420000000.0 -0.4670109469626087 0.7002164257475946
440000000.0 0.24428657241103202 0.7467877389199847
460000000.0 0.0944658676395126 0.7122388506715891
480000000.0 -0.6438911968892648 -0.05521938345031534
500000000.0 -0.19258806582650406 -0.5543727149534831
520000000.0 0.24161911305820674 0.46577013787878374
540000000.0 -0.052357715029696786 -0.46086054687609646
560000000.0 -0.038337326272898105 0.4305505238257673
580000000.0 0.09303180502553651 0.38259627920382666
600000000.0 -0.08373984462963774 -0.35816372850031764
620000000.0 -0.018565042018838174 -0.3678674001358446
640000000.0 0.31390831057625546 -0.27216695182557965
660000000.0 0.14619324375031562 0.4280157560196258
680000000.0 0.19429382318224497 -0.4228966961959335
700000000.0 0.3985459193673629 -0.2317125405398137
720000000.0 -0.3268460928346877 0.2976258798962177
740000000.0 0.26268875180469137 0.29884999458197103
760000000.0 -0.33353148460940496 -0.09106246646531255
780000000.0 0.26654108752017724 0.18650672431579082
800000000.0 0.23991008274774248 -0.1477836813132805
820000000.0 0.13497409483397704 0.1882511549903051
840000000.0 0.13162585012628183 -0.13973900976261047
860000000.0 0.07069840204539526 -0.14516975415718758
880000000.0 -0.1146138078479567 -0.04364386288859467
900000000.0 -0.029444323678498485 0.08140544991300377
920000000.0 -0.04634875874958991 -0.01138954697862452
940000000.0 0.03378152899320387 -0.0075815670819208624
960000000.0 0.05028269841520867 -0.001080088885989036
980000000.0 0.019467629834804243 0.06472827792506268
1000000000.0 0.02122490825687292 -0.08387023317653472
1020000000.0 0.10270155480432792 -0.06231601968205276
1040000000.0 -0.06511808725698985 0.12333132202310833
1060000000.0 0.15086509589721572 -0.09168946451296743
1080000000.0 -0.2029907828434299 -0.0022829171819785878
1100000000.0 0.10420693228325434 0.20663419230808597
1120000000.0 0.11908797689878904 -0.23026237636105965
1140000000.0 0.22680192832707247 -0.1629050469309369
1160000000.0 -0.2974176925341406 -0.03751664606816549
1180000000.0 -0.281103828724671 0.14352593448907744
1200000000.0 0.32698183450334983 0.00024032987651971625
1220000000.0 -0.12622151704391746 -0.3274386929975384
1240000000.0 -0.1957080106333749 0.315744194705039
1260000000.0 0.3799452275962683 -0.07422922266265891
1280000000.0 -0.002546051418160886 -0.3907026327206622
1300000000.0 0.19287441436664932 -0.34739717627955446
1320000000.0 -0.11056432914752388 -0.39108807410447755
1340000000.0 -0.24387949169872905 -0.33157083940374377
1360000000.0 -0.3381284267822484 0.23256244905076484
1380000000.0 -0.036840472857387556 0.3983075217292607
1400000000.0 0.3820969152955146 -0.047798706208902315
1420000000.0 -0.08807837270220366 -0.3510152214366703
1440000000.0 -0.313287222683442 0.13000074220593227
1460000000.0 0.3041025272253911 0.059321669504284365
1480000000.0 -0.26555204614099837 -0.08084042925183217
1500000000.0 0.22086143228777505 -0.09145188581565865
1520000000.0 -0.15909913413982288 -0.12071663649856748
1540000000.0 0.11978271705745053 0.10190535855157203
1560000000.0 -0.0501495871354183 0.11403293026833651
1580000000.0 0.06852587110615599 0.0797781718832455
1600000000.0 -0.04231674809854884 0.0710152993102541
1620000000.0 -0.02902790528828991 -0.05491655179068206
1640000000.0 0.012314405216781153 -0.03580478555574416
1660000000.0 0.009623300717144392 -0.011137826915589984
1680000000.0 0.0008362024352624157 0.006848020102195561
1700000000.0 0.004319262102777459 -0.019286732043226777
1720000000.0 0.02987461940170284 -0.006140901868639479
1740000000.0 0.04637744321482797 0.007086133809435367
1760000000.0 -0.062248472036155814 0.015937548957411576
1780000000.0 0.06383430903095086 0.06631102453262874
1800000000.0 0.09668854581321436 -0.08419455902201821
1820000000.0 0.16524605570470927 -0.004092341972703573
1840000000.0 0.15989627018178942 0.1298900800661695
1860000000.0 0.2450878767563839 -0.03978953672801742
1880000000.0 0.27909134579744743 -0.04019653861951272
1900000000.0 -0.04028409764018815 0.30604132813048673
1920000000.0 0.12894024548437283 -0.3096863513240432
1940000000.0 -0.2821145019895527 0.2261787331603371
1960000000.0 0.3801120513404904 -0.023826359364423576
1980000000.0 -0.08535230038006446 -0.3864441992186076
2000000000.0 -0.40679396499043646 -0.021428937756307706
2020000000.0 -0.26285105539373077 0.32198698422738453
2040000000.0 0.10176407011573775 0.4096030051161956
2060000000.0 0.42240304939094436 0.02523854038303807
2080000000.0 0.19556275743532966 -0.37070143490723156
2100000000.0 -0.28216075304910787 -0.2951115000565512
2120000000.0 -0.3922657205414993 -0.0348002757973614
2140000000.0 -0.3306423379873606 0.18308799476890456
2160000000.0 -0.09808258747695649 -0.34205987291666706
2180000000.0 0.19841748048864832 -0.278980777036457
2200000000.0 0.2569400626149461 -0.20969957702791298
2220000000.0 0.32564300127304147 -0.008270181808063578
2240000000.0 0.2878513163411951 -0.15513984058984343
2260000000.0 0.2547849177861892 -0.20424222810480833
2280000000.0 0.15253035763741393 -0.3007776721291537
2300000000.0 -0.07390691548174344 -0.345784626846475
2320000000.0 -0.37791867853204586 -0.07365016223530076
2340000000.0 0.3019140076387453 0.29801002170574703
2360000000.0 -0.4120085130976828 -0.2254937972939032
2380000000.0 0.47355756799224563 -0.2118775133700409
2400000000.0 -0.012780640733828159 0.5679315113449512
2420000000.0 -0.5440773824116399 -0.2883003543748503
2440000000.0 0.5532704960909491 -0.3579060753764711
2460000000.0 -0.051066441389624725 0.6926307978179709
2480000000.0 -0.3351966988329565 -0.6406366482033101
2500000000.0 0.3505707706301094 0.6561107206147446
2520000000.0 -0.28922679326816925 -0.6979780520126697
2540000000.0 0.015212093066936811 0.7590517823795556
2560000000.0 0.4532961791701392 -0.604775380240914
2580000000.0 -0.7328381771608257 0.13316474499372913
2600000000.0 0.6215310582291133 0.3748708077146555
2620000000.0 -0.34444618052909065 -0.6093475237922908
2640000000.0 -0.6517219431982462 -0.1465538297194558
2660000000.0 0.4457012583984341 0.44597937545346733
2680000000.0 -0.22325785184646427 -0.5449656053475644
2700000000.0 0.05274881945053812 0.5451863059801181
2720000000.0 -0.1188225382078738 -0.49098492581490705
2740000000.0 0.1251806773189081 0.4470452646136561
2760000000.0 -0.15655956373713883 -0.39710970183231475
2780000000.0 0.06676162552220741 0.3930589716316323
2800000000.0 -0.13730074913023538 -0.35664701711447727
2820000000.0 0.36620590838369554 0.06871646798686372
2840000000.0 -0.0033991735255864963 0.36587575445579007
2860000000.0 -0.36019634725759553 0.018063949179625078
2880000000.0 0.21625719132449775 -0.27753190725148663
2900000000.0 -0.342628802483923 -0.05660853499325254
2920000000.0 -0.10625386954397682 0.3330477745170301
2940000000.0 0.33168448041809145 0.12559505122406292
2960000000.0 0.21327931095163463 -0.28299514340779597
2980000000.0 0.2755124664449763 -0.22065006833761372
3000000000.0 0.33083618299954554 0.13023278480364484
3020000000.0 0.0640800488519351 0.34886432833113923
3040000000.0 -0.3428397344371616 0.0790853331064582
3060000000.0 -0.07739361403469784 -0.3408556697194564
3080000000.0 0.3415143576965304 -0.0023283308916950064
3100000000.0 -0.035254358010842916 0.32937097675115007
3120000000.0 -0.30067190478169104 -0.09956848095221509
3140000000.0 -0.024447479732960267 -0.2997857971541138
3160000000.0 -0.043750895322782965 0.2728454612898654
3180000000.0 -0.2362741513790705 -0.08833752147563984
3200000000.0 0.07914451296735474 -0.2118368391585826
3220000000.0 0.15999137888533072 -0.1173576332207686
3240000000.0 0.1607180890106781 -0.046149699772496326
3260000000.0 0.08681595444030184 0.1019891278559125
3280000000.0 -0.0676258953269969 0.08017376464951023
3300000000.0 -0.08054384687314839 -0.019469203350016503
3320000000.0 -0.02710619583678186 0.06183936441100003
3340000000.0 -0.025957214753921473 -0.0476627171257608
3360000000.0 0.03945774950009123 -0.02828095209975145
3380000000.0 -0.04776817968979217 -0.003909124337990322
3400000000.0 0.042461659201969974 0.027544740237079247
3420000000.0 0.0006866965611916872 0.05681176377887158
3440000000.0 0.03405513873477244 -0.05906441921216149
3460000000.0 0.06580487474501635 0.05557642252976092
3480000000.0 0.10248191662673767 0.006006158091703609
3500000000.0 -0.023935393809884378 -0.11543868990972839
3520000000.0 0.11088547987124352 -0.07258414681597893
3540000000.0 0.12308102968461866 -0.08520533684736396
3560000000.0 -0.06073816714534889 -0.1528362220292727
3580000000.0 -0.0794993518390653 0.15878742433485013
3600000000.0 0.17526904987957734 0.05047134604505899
3620000000.0 0.17646653978121335 -0.05169761853164455
3640000000.0 0.17268754242224627 0.0568633508979723
3660000000.0 -0.1179248525110968 0.13412916524835025
3680000000.0 -0.011370454298965462 -0.17706242509472037
3700000000.0 0.17328241924106122 -0.0368065397778721
3720000000.0 0.17388351679588598 0.023111715501645404
3740000000.0 0.16409341169801003 -0.021612376284073594
3760000000.0 -0.10467209136305729 -0.10599846026405467
3780000000.0 -0.10840169780132594 -0.08135782027387056
3800000000.0 -0.027096661841853394 -0.12514068350184113
3820000000.0 -0.0444757331409959 -0.11401848548302441
3840000000.0 0.10865867970612317 0.015987957292084593
3860000000.0 0.08927602101936749 0.05700858307294877
3880000000.0 0.10535032448025405 0.04463181867596859
3900000000.0 0.12960761723502323 -0.005481619305248671
3920000000.0 0.09464635061102467 -0.1012604915192511
3940000000.0 -0.12245869834814742 -0.06209050806051705
3960000000.0 -0.048837123285509224 0.11960197459834883
3980000000.0 0.07023761245073078 0.09128144510829837
4000000000.0 -0.09624926098502072 0.021752401706419552
