!Created with skrf (http://scikit-rf.org).
# Hz S RI R 50.0 
!freq ReS11 ImS11
400000000.0 -0.6337789015760312 -0.5805428148067661
420000000.0 -0.6656348368566173 0.516265101579056
440000000.0 0.19552803363247565 0.762903644791746
460000000.0 -0.2922586980754205 0.6544234865864589
480000000.0 -0.6262752730462894 -0.18330670614314595
500000000.0 -0.2204755942080445 -0.5456276950330573
520000000.0 0.4747562378700411 0.20814405142820158
540000000.0 0.37492021950627363 -0.27093999592927753
560000000.0 -0.16884960362056078 0.4048392768191605
580000000.0 0.37040336959839815 0.15036296815006134
600000000.0 -0.3579277730240432 -0.05732740400646595
620000000.0 0.07603085325826592 -0.36016689981183664
640000000.0 0.414257720244683 -0.05694824495000405
660000000.0 0.29252383638385093 0.35484585512283556
680000000.0 -0.32533560901416625 -0.3367843121802179
700000000.0 0.3452704653772779 -0.3042697739872334
720000000.0 0.04438961071408279 0.4367545761944615
740000000.0 -0.10048627806954985 0.37894174596924046
760000000.0 -0.2867756601517535 -0.2068911097365612
780000000.0 0.12460651636154813 0.29858428364429174
800000000.0 0.28327262890036886 -0.09841784971063752
820000000.0 -0.21859605247994263 0.08558010266618624
840000000.0 0.0600784949082153 -0.16754963802044517
860000000.0 -0.11999785011067243 -0.09607575354507124
880000000.0 0.1276311965841644 0.016162281318963655
900000000.0 -0.1062964336905723 0.02140631171214702
920000000.0 0.04238588710752113 0.05582935546470872
940000000.0 0.007640084936037088 -0.04840639047558667
960000000.0 0.054588316266840055 0.007225989454864741
980000000.0 -0.04440416410905662 -0.03940107323603252
1000000000.0 0.04259967877243699 -0.0687815718373724
1020000000.0 0.07705728876320588 0.07818821875211135
1040000000.0 -0.13034286254660438 -0.046915820065577166
1060000000.0 0.16838985845379492 0.019750442642239872
1080000000.0 0.15034359533243027 -0.1409082167521887
1100000000.0 0.049380801519351446 0.23736630532045247
1120000000.0 -0.06279556581469149 -0.26158975045158794
1140000000.0 -0.2180400142522908 -0.18251840437351755
1160000000.0 -0.13978869283700782 0.25834836091046454
1180000000.0 -0.28441274475572914 -0.11996489398554626
1200000000.0 0.18940930227417405 0.2685994074190139
1220000000.0 -0.0050805076653902635 -0.34939868798086393
1240000000.0 -0.3536833191590373 0.1220550888274705
1260000000.0 0.3463970393798448 -0.16985955211348777
1280000000.0 0.1767339778902136 -0.342692291719826
1300000000.0 0.36209832019417104 -0.15880620953947172
1320000000.0 0.2092575334509527 -0.3494231463251462
1340000000.0 -0.3302872162338193 -0.24888841471535
1360000000.0 -0.3564774671860263 0.1925749463906283
1380000000.0 -0.3383956001150593 0.2085249782238009
1400000000.0 0.35647737533449847 0.15375857084154504
1420000000.0 -0.09219969707922109 -0.35008509556228934
1440000000.0 -0.29514560633636683 0.16310487707487376
1460000000.0 0.23758432726471113 0.19116859349455131
1480000000.0 -0.229259394554784 -0.14775132200592764
1500000000.0 0.1318716981304239 0.1893974693642625
1520000000.0 0.17122511742001578 -0.08598153744003326
1540000000.0 0.10711619651485282 -0.10580313742560085
1560000000.0 0.12265109788509729 0.009289090551470855
1580000000.0 -0.002806528466690696 -0.10133747847403364
1600000000.0 -0.06753461505751816 0.0349929112975595
1620000000.0 -0.02137820888445119 -0.05361720318036471
1640000000.0 0.029541923257992393 0.023052229953940885
1660000000.0 -0.007095589429212582 -0.010119021840564605
1680000000.0 0.005127755291334049 0.0068790650733155535
1700000000.0 0.02100991915825665 -0.011321691858027184
1720000000.0 0.030793608579988904 -0.014458946146275773
1740000000.0 0.03781396037205396 -0.03340240966478368
1760000000.0 0.003946544664758892 0.06905610651633748
1780000000.0 -0.03114453624633924 -0.09960950147652001
1800000000.0 0.009738662469422954 -0.14874107207853507
1820000000.0 -0.003981873374853593 0.1801502028391103
1840000000.0 -0.09847807182854715 0.18612585752828475
1860000000.0 -0.24287180262584546 -0.012815013860345779
1880000000.0 0.23005920964388474 -0.15443042265112608
1900000000.0 -0.00947699743162679 0.3117958044687615
1920000000.0 -0.23417629632149842 -0.2505320416073612
1940000000.0 0.32813165249117043 0.16265285000436394
1960000000.0 -0.2708318869248694 -0.2663542584374985
1980000000.0 -0.35487148471737995 0.1563778340252849
2000000000.0 -0.374382192977723 0.14031485021968415
2020000000.0 -0.31255079222476106 0.2731430330357965
2040000000.0 0.2303427381272663 0.36377175141097834
2060000000.0 0.03636871370012006 -0.4325027531448574
2080000000.0 -0.3878331120006624 0.17380863075163305
2100000000.0 0.09724820813210618 0.39432654998479794
2120000000.0 -0.08931860568707839 0.3770434887880916
2140000000.0 -0.3239352502091319 -0.184963786608164
2160000000.0 -0.20937380714261092 -0.2903546662830201
2180000000.0 -0.19437558982461395 -0.28614187206383573
2200000000.0 -0.18850118643176156 -0.27572937509124323
2220000000.0 -0.09395992304670012 -0.31151907731826817
2240000000.0 0.03860099192642191 -0.32057124339416804
2260000000.0 0.23867384946420098 -0.22511473699089946
2280000000.0 0.31269182050287614 -0.13983249184767402
2300000000.0 -0.1518827335945602 -0.3363812566780124
2320000000.0 -0.13044603478408986 0.3803276008152602
2340000000.0 0.1198996216514138 -0.42421778620215783
2360000000.0 0.024644079646986346 0.4837049024673548
2380000000.0 -0.4033758861644137 -0.35371907084634374
2400000000.0 0.504472164910974 -0.3027856004380378
2420000000.0 0.15466199384629375 0.6183748648440457
2440000000.0 -0.678886134313731 -0.04603879835820327
2460000000.0 0.5076337715282668 -0.5029402043246726
2480000000.0 -0.18142915800061651 0.7178637369806004
2500000000.0 0.15403753227381495 -0.7404373945712136
2520000000.0 -0.2986434820716172 0.7043949661709097
2540000000.0 0.5107005148765841 -0.5709634724665773
2560000000.0 -0.7508203012398904 0.12352602709913298
2580000000.0 0.5576939145183106 0.49684370780749987
2600000000.0 -0.1059087584804533 -0.7164935820771714
2620000000.0 -0.33785563432079724 0.60869076376975
2640000000.0 0.16982443143591822 0.6401236204166492
2660000000.0 0.13128053395521186 -0.6085642401655348
2680000000.0 -0.31347480521222926 0.4868419798462853
2700000000.0 0.41855883848767234 -0.33204724748545494
2720000000.0 -0.3865494996649005 0.2997899914047898
2740000000.0 0.44082664376962966 -0.06462621300742513
2760000000.0 -0.35456664979019825 -0.2087327874603589
2780000000.0 0.35898550786399375 0.15193352020783915
2800000000.0 -0.28944721184927596 0.23440117131688737
2820000000.0 -0.2577643477008837 -0.24865340503933842
2840000000.0 0.2789479891955945 -0.1976756499979909
2860000000.0 -0.29210067390811933 0.15847375098599067
2880000000.0 0.28436884518255745 0.16964466756936727
2900000000.0 -0.022634705383745415 -0.3373479687694902
2920000000.0 -0.13158651050137768 0.3209563988692577
2940000000.0 0.22517148283248514 -0.26505745167200634
2960000000.0 -0.15249646778590686 -0.3029267806122355
2980000000.0 0.3219800476647314 -0.08500787059901738
3000000000.0 -0.23903008826367758 0.24332689320170842
3020000000.0 -0.3469634777813588 -0.06999805526968225
3040000000.0 -0.35501029857270144 0.005169590541432574
3060000000.0 -0.3072504034928828 -0.1559876316219738
3080000000.0 0.17985318018668428 -0.2730140038475793
3100000000.0 -0.23800451602946449 0.2005592965631946
3120000000.0 0.28338473495889177 -0.10289335417074424
3140000000.0 -0.16616420892266223 0.24497488677704635
3160000000.0 -0.11757540453373101 -0.26046362150400565
3180000000.0 -0.26186109481741027 0.010658852126524999
3200000000.0 -0.21631212869138852 0.06535835307848335
3220000000.0 -0.004502321779399319 -0.18842323722025553
3240000000.0 -0.11206587838828441 0.11211034584469923
3260000000.0 0.09344610932849227 -0.10307736149846995
3280000000.0 -0.09258825412382997 0.07660337318357796
3300000000.0 0.09324845591165565 -0.02738561266586397
3320000000.0 -0.06888022072347046 -0.010920265765421775
3340000000.0 -0.04711074725063887 0.007487839486606041
3360000000.0 -0.01373544552207704 -0.03450122681733818
3380000000.0 -0.034119159735066774 -0.01361560021478467
3400000000.0 0.05152952066672994 0.011231016972823544
3420000000.0 -0.0010034164458812592 0.07518907240409056
3440000000.0 -0.039552204401695004 -0.08552172512848405
3460000000.0 -0.10094656266835224 0.02931553414239061
3480000000.0 -0.06408103831119553 0.08752715177310649
3500000000.0 0.09552031952626373 -0.07211773909888936
3520000000.0 -0.1359757460196298 0.0337183137288756
3540000000.0 0.15027313017790403 0.06679694264674782
3560000000.0 -0.12999905316303823 0.11862640534296359
3580000000.0 0.15687829770021178 -0.08094516155551487
3600000000.0 0.13724618250602907 -0.10549831842029476
3620000000.0 -0.011463233466136888 0.1700412988785052
3640000000.0 -0.0031414282985319612 -0.17193989879163
3660000000.0 0.1659629093439232 0.06149626506065014
3680000000.0 0.176761170636804 0.02540855855639526
3700000000.0 0.10320853776199274 -0.1374541912503312
3720000000.0 0.09679674117383372 -0.12126100540475919
3740000000.0 -0.11786156565856848 -0.0765298007382895
3760000000.0 0.0015339821719185934 -0.13227367114394195
3780000000.0 0.0479430718697709 -0.1173851443253319
3800000000.0 -0.10211951867359358 -0.0626810572463559
3820000000.0 -0.012853091440179902 -0.10604772503217502
3840000000.0 0.0961629140641545 0.02399996105501946
3860000000.0 -0.09878012329509359 0.0475212560775397
3880000000.0 -0.021296493750193643 0.13056794584956724
3900000000.0 0.14454442747027654 -0.013667847495732197
3920000000.0 -0.1406036481407207 -0.012467373927714511
3940000000.0 -0.11737707339544591 -0.05211741223144839
3960000000.0 0.12010232435411225 0.008189262664033345
3980000000.0 -0.04818255981959513 0.10328225649861732
4000000000.0 0.10576460478995603 -0.005485908379540227
