!Created with skrf (http://scikit-rf.org).
# Hz S RI R 50.0 
!freq ReS11 ImS11
400000000.0 -0.8527465185763425 0.10705491513404848
420000000.0 0.0052323324569128055 0.8398026524039841
440000000.0 0.6597837526554967 0.4217743406497753
460000000.0 0.3229949512522139 0.6355994064465191
480000000.0 -0.5250645332644351 -0.3830311962887098
500000000.0 -0.3924483573729697 -0.4577955002432516
520000000.0 0.45291539568946604 -0.2896436430486133
540000000.0 -0.4426546332700326 -0.15318189621336506
560000000.0 0.3180318297440427 0.2934843540626693
580000000.0 0.3400032604905417 0.1957923124307922
600000000.0 -0.2023143244402849 -0.29959547955634824
620000000.0 0.15698909953731538 -0.32943711574013823
640000000.0 0.28046672486534335 -0.3020280333425817
660000000.0 0.16520903292465813 0.4122712033119442
680000000.0 0.17254460135296248 -0.427531544192
700000000.0 0.28104143698605977 -0.36583983779165813
720000000.0 0.31554141068485403 0.3157417933643911
740000000.0 -0.30193190217277666 -0.24636459183004855
760000000.0 -0.24566510818764453 0.22247337670882816
780000000.0 0.3216910242906313 -0.0014216553905671216
800000000.0 -0.17932523839918743 -0.2297110389669175
820000000.0 0.15908657673459561 0.1725419825391738
840000000.0 0.17481401835436144 0.03667600139847031
860000000.0 -0.0860581296473475 -0.12562961990643054
880000000.0 0.07008693548650219 -0.09784756054090456
900000000.0 -0.10070653579212628 -0.030284022145785912
920000000.0 -0.05531022540279469 0.053852533450493845
940000000.0 0.04717617927743009 -0.030922716917737847
960000000.0 -0.06124860730456803 0.02344807144830768
980000000.0 -0.006310857518564531 -0.06929588859457134
1000000000.0 0.04603311052847041 -0.06784031781932914
1020000000.0 0.054565419595525015 0.09312473680408476
1040000000.0 0.1053730551638814 -0.06635176769857516
1060000000.0 -0.03435024383091892 -0.1552536898699641
1080000000.0 0.18502323290641892 0.030472381771255174
1100000000.0 0.17283159928590416 -0.1307684427845124
1120000000.0 0.10497039503404204 -0.23156005168184435
1140000000.0 -0.2092218128227476 -0.2046849676619312
1160000000.0 0.11203021762278072 -0.2942274569698271
1180000000.0 -0.32111887230624653 -0.05403162778291079
1200000000.0 0.27518650475876894 0.1645138690861117
1220000000.0 0.09645883543663117 0.32485669182131316
1240000000.0 0.15113125374592243 0.33001700648938764
1260000000.0 0.2982930109460902 -0.2593867584894483
1280000000.0 -0.39491323275439777 0.08533937608100241
1300000000.0 -0.37071349967486816 0.18270000709350173
1320000000.0 0.29900967613144797 0.2946128829399752
1340000000.0 0.4100700375700636 0.051438019444645496
1360000000.0 0.405689398838509 0.014973602401879798
1380000000.0 0.36458008650039203 0.1559064166147157
1400000000.0 0.3777269191469824 -0.1085238632567221
1420000000.0 -0.269289355972919 -0.26610375142985165
1440000000.0 0.2464352564465798 0.26035101403232824
1460000000.0 -0.20610957815565473 -0.24638452946201822
1480000000.0 0.018693717179530805 0.28253897155245833
1500000000.0 0.20876077308157479 -0.12427550930469058
1520000000.0 0.1284812186689693 -0.15966506847025874
1540000000.0 -0.03130292884444756 -0.16729481538840338
1560000000.0 -0.13908591192786315 -0.01359051002319277
1580000000.0 0.054410150628091805 0.09516375904684268
1600000000.0 -0.05402111470939243 -0.06509767135799684
1620000000.0 0.06731121840239242 -0.0063198365881575345
1640000000.0 0.044135723418907244 0.007229381376499078
1660000000.0 0.015943481780909964 -0.01562157584675282
1680000000.0 0.0010049532165568302 -0.009258397745699896
1700000000.0 0.02137347640498469 0.01050899783687594
1720000000.0 0.04174962000245596 0.013163639887707385
1740000000.0 -0.061690551186687086 -0.03713183899552337
1760000000.0 -0.036381133888776805 0.08628163003321138
1780000000.0 0.11284102773377976 0.0034383812523140263
1800000000.0 -0.13766434717231063 -0.018157724872444436
1820000000.0 -0.131321142569156 -0.10729021310290113
1840000000.0 -0.09460379259301793 0.193581378749013
1860000000.0 -0.2123942087122278 0.16695992588298242
1880000000.0 0.18706490341099985 0.2514242994457987
1900000000.0 0.2022600725331196 0.2699913116919061
1920000000.0 -0.3323942658779432 -0.12305173988022679
1940000000.0 0.17582172698789258 0.32201777030850476
1960000000.0 0.37588120809012354 -0.0072696382210957
1980000000.0 0.3766454711622335 0.09568322005860853
2000000000.0 0.40732446359999264 0.053469337537394246
2020000000.0 0.0376653474092191 -0.429042053263962
2040000000.0 -0.1871804491433079 0.39551617101871106
2060000000.0 0.39520397272625163 -0.16382315116995816
2080000000.0 -0.04326816809315929 -0.40925324175160505
2100000000.0 -0.15065833416147353 -0.3638911136723913
2120000000.0 -0.04212612371340865 -0.37707392737986173
2140000000.0 -0.11103489052085846 -0.34829108151021926
2160000000.0 0.3385477608765436 -0.08856414964569463
2180000000.0 0.2287510787627903 -0.24546805400215846
2200000000.0 0.00574834764329398 -0.3178833323694266
2220000000.0 0.20475348019372874 -0.22824098514006014
2240000000.0 0.16388714362013684 -0.2581416964985366
2260000000.0 -0.06650505191976502 -0.3012278872438308
2280000000.0 -0.23146037343434175 -0.21391411532574353
2300000000.0 -0.3234472545304134 0.09739658398528753
2320000000.0 0.35241985010995475 -0.11928522592615882
2340000000.0 0.006382060941038715 0.40850106375542
2360000000.0 -0.4242012923973491 -0.14251415187597366
2380000000.0 0.22503696624051628 -0.4398776551322492
2400000000.0 0.3799920574968567 0.38626129963239014
2420000000.0 -0.3958350453402661 0.4351326421633768
2440000000.0 -0.5085707618525258 -0.3700103873729779
2460000000.0 0.49439463523982424 -0.43984064229922004
2480000000.0 -0.0027530176851821176 0.6856963093145306
2500000000.0 -0.2270203928468273 -0.663046301502851
2520000000.0 0.21435542720079764 0.6747541295079201
2540000000.0 -0.09578140730511206 -0.7016503330711682
2560000000.0 -0.25228013448794384 0.6529556464651545
2580000000.0 0.6410550438427636 -0.24375748198775427
2600000000.0 -0.6551783838197373 -0.11020662711363215
2620000000.0 -0.5409862819414835 0.3386615816157353
2640000000.0 0.5526518526233857 -0.2505495357973625
2660000000.0 -0.5007992968119875 0.27940148016880145
2680000000.0 0.5036958861571682 -0.18763017182326072
2700000000.0 -0.4786031567646981 0.1533931664406165
2720000000.0 0.2533333800467469 -0.3932479810551864
2740000000.0 -0.05517354863738931 0.4330362391284436
2760000000.0 -0.06252172969550175 -0.4028727789252609
2780000000.0 -0.06582007460327761 0.3807275934255786
2800000000.0 0.15806719648787126 -0.34169771508897995
2820000000.0 0.029332573625503237 0.37570871181815085
2840000000.0 -0.17999933772783244 -0.33425670486099274
2860000000.0 0.3300699231529892 0.1931754798425727
2880000000.0 -0.23308312619051103 -0.29704082704383
2900000000.0 -0.3501090113893842 0.1351719858348892
2920000000.0 -0.19637390843640237 0.32142786758756337
2940000000.0 -0.2483365162854535 0.28826520575513837
2960000000.0 -0.3496559210816579 0.16445846157590208
2980000000.0 -0.28456104020661505 -0.263543324204903
3000000000.0 0.14894359657269107 -0.3633391038543647
3020000000.0 0.38638925671711144 -0.06810635835456458
3040000000.0 0.0529917661616699 0.3826613447179888
3060000000.0 -0.2906336033343849 -0.2413039666101043
3080000000.0 0.23126382207380206 0.2876916153965677
3100000000.0 -0.3202782758584061 -0.16367707411769072
3120000000.0 0.346259835167083 0.033904451266944066
3140000000.0 -0.17357188126366374 0.28912367891891216
3160000000.0 0.15960911980609327 -0.272265091078931
3180000000.0 0.20578145098330758 0.20212832998156358
3200000000.0 -0.23168844522841733 -0.11234880675871474
3220000000.0 0.13123236693736798 0.18609845421778506
3240000000.0 0.14171696566925615 -0.14577758679509797
3260000000.0 -0.16826094188768687 -0.06552243013191546
3280000000.0 0.13603785767590723 0.0800257179749327
3300000000.0 -0.11583375584562869 -0.073781899967944
3320000000.0 -0.06244666853812004 -0.09172384335093539
3340000000.0 0.048261433433692325 -0.07478801348621777
3360000000.0 0.041405760954445175 -0.05923691379973916
3380000000.0 0.018166357628574076 0.05843314904755934
3400000000.0 -0.006212831681795089 -0.058391092629610813
3420000000.0 -0.03977420973585632 -0.04406495342504894
3440000000.0 0.03889651148818404 0.05357006081362903
3460000000.0 0.0449239763312337 -0.058395010753668826
3480000000.0 0.042155285210034074 0.07524706795537246
3500000000.0 0.10241566443368572 -0.011275975846642791
3520000000.0 0.12040638909811847 -0.01619140856154092
3540000000.0 0.1134073583666987 0.08339374651628617
3560000000.0 -0.14651667138750957 0.04880677967241868
3580000000.0 0.044573505772097566 -0.1594336294616359
3600000000.0 -0.16890039420804195 0.040869877765374936
3620000000.0 -0.1709192656544191 0.06428489901601309
3640000000.0 -0.1694930406519299 0.09040149028287697
3660000000.0 -0.15037860852891355 0.12794322119120066
3680000000.0 -0.19808444192299293 0.028569994085920623
3700000000.0 -0.14816703242749799 -0.1385828108990797
3720000000.0 -0.09117140350922018 -0.1832825646057212
3740000000.0 0.031589591929029555 -0.1996487363921904
3760000000.0 0.08521917243245188 0.1794174952453009
3780000000.0 -0.11440907519442949 -0.15606434104354378
3800000000.0 -0.015993735640573107 0.18757705025306254
3820000000.0 0.16107133010462857 0.09109178512615734
3840000000.0 0.15316403551527225 -0.09928962137326676
3860000000.0 0.021032901938617742 -0.18342683838527615
3880000000.0 -0.035998681597745795 0.18551912105320723
3900000000.0 -0.028888115365511394 -0.1897731366583034
3920000000.0 0.12231396471434267 -0.15009249154611456
3940000000.0 0.003389827865867539 -0.19466496682578646
3960000000.0 -0.18278300873641806 0.05808287004964685
3980000000.0 -0.024932446685939313 0.18060914979167206
4000000000.0 0.07512489756061477 -0.14623083734251
