!Created with skrf (http://scikit-rf.org).
# Hz S RI R 50.0 
!freq ReS11 ImS11
400000000.0 -0.8448568334282548 -0.15474287990080668
420000000.0 -0.2163294766280608 0.8096836017269599
440000000.0 0.6039450904605466 0.49950177531053813
460000000.0 0.417401701100675 0.5834695379072783
480000000.0 -0.5213856438498264 0.37732919582151503
500000000.0 -0.5385259713994871 -0.22255258721344287
520000000.0 0.20874916207490948 0.4697453636544665
540000000.0 0.46633592319208905 0.010991793498903862
560000000.0 -0.14908914768058357 0.4166733492137318
580000000.0 -0.14602141533015897 0.37498664432132556
600000000.0 0.06610411824412885 -0.3711264994753592
620000000.0 -0.23816464042368937 -0.28915322623425166
640000000.0 0.1839202609372751 -0.37512368435332394
660000000.0 0.3166632241236782 0.3258449993527146
680000000.0 -0.44637691417994785 0.1412111515345988
700000000.0 -0.41904637116716215 -0.14663869298269108
720000000.0 0.015124405212229138 0.41748711650193915
740000000.0 -0.20641272017174958 0.31837616544668396
760000000.0 -0.05056946283054438 -0.3421066385563784
780000000.0 0.14806176836968554 0.28483882869273663
800000000.0 0.15303234135185165 -0.24981009801670184
820000000.0 -0.20570771799799153 0.12106369066985853
840000000.0 0.16402264079059223 0.0870299567955762
860000000.0 0.0737619729122929 0.13556126832079046
880000000.0 0.04740218469391922 -0.10559934558963775
900000000.0 -0.0026350972959435005 0.0820372589211016
920000000.0 -0.005741320974116696 0.05460010982732986
940000000.0 0.009846975592399158 0.03869946058101524
960000000.0 -0.048497142991634073 -0.01616371345828822
980000000.0 0.013333715291914787 -0.0722951856914249
1000000000.0 0.025804272551002958 0.085850349002636
1020000000.0 -0.07858075790707826 0.08743945956061244
1040000000.0 -0.06233032053595573 0.1204089061221626
1060000000.0 0.12871482438406848 0.10464944687861116
1080000000.0 -0.09484294648114751 -0.17503391139710606
1100000000.0 0.20301830732700793 0.10159093326902686
1120000000.0 -0.0048417368510119485 -0.26011091612837844
1140000000.0 -0.27846146426410306 -0.023230904942120167
1160000000.0 0.16378721110843128 0.24233300137223843
1180000000.0 0.09326642359862784 0.2951535138812868
1200000000.0 0.005170301429582303 -0.31646745530527604
1220000000.0 -0.14732159389133903 -0.3098539400827723
1240000000.0 -0.03456245776333613 0.37019028494572465
1260000000.0 0.009792520450064972 -0.3868325363414605
1280000000.0 -0.37158407943946753 -0.0990079935296558
1300000000.0 0.054921435651222816 -0.39059729946922966
1320000000.0 -0.39882437192770115 -0.09056259361641782
1340000000.0 -0.3659810214789286 0.18344191747015173
1360000000.0 -0.026114709717854415 0.41028227101688064
1380000000.0 0.3903342054315242 -0.07345912401800389
1400000000.0 0.2132593136068739 -0.3150092596942379
1420000000.0 -0.1870388755459738 -0.30776467218765324
1440000000.0 -0.12262848228126848 0.3186978544746837
1460000000.0 0.22381872555548707 -0.21379654842668522
1480000000.0 -0.2755886189338844 -0.009476977522627715
1500000000.0 0.22938118154073942 0.06659303092649436
1520000000.0 0.0874818156846859 -0.18640960187097988
1540000000.0 0.08368837764466946 0.14620063376230427
1560000000.0 -0.07560534441596023 -0.11069248944847553
1580000000.0 0.05428288798788696 0.08678305504691619
1600000000.0 0.04138974195141735 0.06186945868879284
1620000000.0 -0.05206850277474765 -0.00884311201595457
1640000000.0 0.009744394325204807 0.03203967433395244
1660000000.0 -0.020095576152138316 -0.002014763350212675
1680000000.0 0.008705664180332263 0.0077438462234727355
1700000000.0 0.004828550715493296 0.006655027546879172
1720000000.0 -0.01722236956525848 -0.005650357606021084
1740000000.0 -0.01738692932801902 -0.03692036772714131
1760000000.0 0.04629866975885687 -0.05219274227444965
1780000000.0 -0.01747470490359301 -0.10532774226282846
1800000000.0 -0.1442836962327741 -0.04704206848564051
1820000000.0 0.1819182864739474 0.024820037900599008
1840000000.0 0.20435074112479204 0.057939558492806714
1860000000.0 0.01797513911940832 0.24167328646415762
1880000000.0 -0.013044279028728917 -0.26846059318972937
1900000000.0 -0.2849793710177791 0.09425537732744185
1920000000.0 0.2356471368605048 0.23952459693818529
1940000000.0 -0.23903842752207188 -0.28496916373419406
1960000000.0 0.347796135153253 0.18853514774495445
1980000000.0 -0.21309991464881192 -0.3505104860762546
2000000000.0 -0.20078582243246665 0.3690808293449205
2020000000.0 0.375665959969132 0.18627489372950354
2040000000.0 0.4012119392123885 0.10768571151851487
2060000000.0 0.3753179473609983 0.17228167038464154
2080000000.0 0.3052306522155701 0.27867169372031414
2100000000.0 0.41498420346355824 -0.030458278914721745
2120000000.0 -0.19941744123034402 -0.35805052179849944
2140000000.0 -0.2760754622471607 -0.2773123871383164
2160000000.0 -0.3623891961634487 0.0005714108225394573
2180000000.0 -0.16461779249129024 -0.3000542508599523
2200000000.0 0.12587356659812587 -0.3039360754106241
2220000000.0 0.32155748178624965 0.00449363111703544
2240000000.0 0.2672837682971054 0.18451888386362156
2260000000.0 0.30160809510900344 0.1431441260013444
2280000000.0 0.25391800284479077 -0.2387919718681355
2300000000.0 -0.340965146341978 -0.14047674579771946
2320000000.0 0.12832602449863398 0.3766866279722655
2340000000.0 -0.17857067990915299 -0.3933457595726488
2360000000.0 0.18662705223850887 0.43309386240367204
2380000000.0 -0.47082387757470723 -0.2248718277133548
2400000000.0 0.4387893773298262 -0.3666063231294317
2420000000.0 0.28158424411421973 0.5509568535570044
2440000000.0 -0.6540765944526598 0.08717400294651084
2460000000.0 0.2976301564028755 -0.6255266329307375
2480000000.0 0.18023478104162716 0.6944437602907095
2500000000.0 -0.3437971972316736 -0.6482479168064245
2520000000.0 0.1911447129029738 0.716260615889577
2540000000.0 0.1654119871479781 -0.7233846038041661
2560000000.0 -0.5468566781698249 0.491387006991623
2580000000.0 0.7144529102221336 0.09584595934344804
2600000000.0 -0.4718026985372375 -0.5149222324327694
2620000000.0 0.07800986522741488 0.6665483324887534
2640000000.0 0.4796618918073159 0.42007795698844097
2660000000.0 -0.23718287055659235 -0.5509828350041687
2680000000.0 -0.009141333951295771 0.5575990590810667
2700000000.0 0.1965374378587599 -0.4768926626741038
2720000000.0 -0.31805978420848297 0.3516466945630818
2740000000.0 0.34033812144239384 -0.27933510096973224
2760000000.0 -0.18474007813155602 0.36659433030220817
2780000000.0 -0.1255189983172685 -0.3652797057976048
2800000000.0 0.3636509986981498 0.043224479993621126
2820000000.0 -0.27389290499583735 0.21829281186520538
2840000000.0 0.14271143566491754 -0.311060913301271
2860000000.0 -0.1078499996856016 0.32308833770987966
2880000000.0 0.2497288032158234 -0.23479912985975712
2900000000.0 -0.3446856086179869 0.07045046425258708
2920000000.0 0.350407608607185 -0.07558293923611425
2940000000.0 -0.35499698329499585 -0.05153746115816298
2960000000.0 -0.12309755050946454 0.3247827353019148
2980000000.0 -0.3046752441185694 -0.15067892089937032
3000000000.0 0.34355213657334893 0.0021687229822479714
3020000000.0 -0.1279695393084359 0.32605279894608846
3040000000.0 -0.345907116816879 0.07620878531911056
3060000000.0 -0.2659546663012835 -0.23058578968189414
3080000000.0 0.1836922001717398 -0.291209065370674
3100000000.0 0.3130372035443792 0.11072364531765874
3120000000.0 0.016403848382471976 0.31425123385833065
3140000000.0 -0.29142253742150975 0.018039326998579092
3160000000.0 0.05594444884361083 0.2601788375396776
3180000000.0 -0.03512967471442088 -0.24179507628960437
3200000000.0 0.18159894733643783 0.13344278696865433
3220000000.0 0.14123303066081708 0.1480710200993895
3240000000.0 0.12087349420692906 -0.12686732527473582
3260000000.0 -0.05999290120511333 -0.12712551022048513
3280000000.0 -0.10459243114975661 0.008359813675837272
3300000000.0 -0.07253599943247793 -0.025427025771986817
3320000000.0 0.010068643531367574 0.055432288331825105
3340000000.0 -0.020007901682158564 -0.036785055417655685
3360000000.0 -0.030280586746633725 -0.02092494026536762
3380000000.0 -0.020204054006225495 -0.03771242451252765
3400000000.0 -0.0067150862284412315 -0.05350142551900663
3420000000.0 -0.0407218509673136 0.052409331605784176
3440000000.0 -0.018138143741427373 0.07245187844173306
3460000000.0 0.035748557167150814 0.07354028524312493
3480000000.0 -0.04345846814084089 -0.07690974312764479
3500000000.0 -0.04502162806650266 -0.09311512433664165
3520000000.0 0.09121299418765089 -0.09172227303197747
3540000000.0 -0.136003855525828 0.06614065859909533
3560000000.0 0.07195369777804203 -0.15037490323306213
3580000000.0 -0.07464007702006777 0.1572254240718975
3600000000.0 0.16653744939559276 -0.058306875187418124
3620000000.0 0.16816366996321142 0.03401184501469262
3640000000.0 -0.1664657578259044 0.041931536121105464
3660000000.0 0.08041453356284488 -0.15273409858670767
3680000000.0 -0.07168453847970464 0.1586706493196445
3700000000.0 -0.13290349633113457 0.11673179920035925
3720000000.0 -0.07456614626137385 0.15928191653879467
3740000000.0 0.10752930128122865 0.12564660771741804
3760000000.0 -0.038669347578167375 -0.14141627161339482
3780000000.0 0.03494575426620013 -0.1257672791512289
3800000000.0 -0.0517852868471574 0.10967676603539142
3820000000.0 0.01886891887727847 -0.11813319434772944
3840000000.0 0.07933198941696007 0.0867446692516292
3860000000.0 -0.07503588250892988 0.09296434607736596
3880000000.0 -0.10806297869487373 0.054246418770541434
3900000000.0 -0.09592539153504938 -0.0817093746136172
3920000000.0 0.13425748976122084 0.0071953038798699374
3940000000.0 0.08260775080597695 0.11040124131077503
3960000000.0 0.1069517922839475 -0.08828670406952453
3980000000.0 -0.10004303310439347 0.0823979899817061
4000000000.0 0.09677879288424251 -0.05153154892149631
