!Created with skrf (http://scikit-rf.org).
# Hz S RI R 50.0 
!freq ReS11 ImS11
400000000.0 -0.848768639116926 0.08147184708707263
420000000.0 0.03688214309846357 0.8373315896987454
440000000.0 0.6148972945797908 0.4768906999539432
460000000.0 0.31603310216022 0.6422122872271046
480000000.0 -0.5929300130938345 0.26879860641076886
500000000.0 -0.5231095970669051 -0.28504637081756656
520000000.0 -0.35298977178946533 -0.40505293757694655
540000000.0 0.278105178709889 0.3709171193216908
560000000.0 -0.09291876917751711 -0.41611875890057265
580000000.0 -0.07341306102896622 -0.3716487539299489
600000000.0 -0.3229072266151559 -0.15003594122802222
620000000.0 -0.3227757682062627 -0.16846049863011336
640000000.0 0.32205944274500103 -0.26017667090168717
660000000.0 0.2451340038214291 0.3804443515464163
680000000.0 0.05721988467420461 -0.4585659647904331
700000000.0 0.4321130258634101 -0.14317663955739993
720000000.0 -0.36394492111485305 -0.24067154061661752
740000000.0 -0.40107183883381775 0.005512074383079124
760000000.0 -0.2614708601109651 -0.251510890912508
780000000.0 0.32706108751436225 0.07801317133104901
800000000.0 -0.2642136972722797 0.12317357603356652
820000000.0 -0.22334391356842376 -0.054788229977456436
840000000.0 0.1275113358788032 0.11655471062502996
860000000.0 0.06322949816420376 -0.11598437005661479
880000000.0 -0.09297622460663127 -0.031470743721983184
900000000.0 0.041066774466831955 0.04828239938890597
920000000.0 -0.020936117215538712 0.03215055415377835
940000000.0 0.030627211899210024 -0.0015697381692304755
960000000.0 0.04487488155451675 0.0044807741830105875
980000000.0 0.009951053202741202 0.0679022554609772
1000000000.0 -0.08959477763138604 -0.028995773625259704
1020000000.0 -0.1103488473412843 -0.0580665381772386
1040000000.0 0.0668390452431369 -0.1337705530783549
1060000000.0 -0.16282973021026179 0.08893106093047175
1080000000.0 -0.0325795149272565 0.219952768122971
1100000000.0 -0.23464471114733845 -0.11851741269860536
1120000000.0 0.2685297397942846 -0.09210076568103213
1140000000.0 0.24075256110120968 0.17740612142259635
1160000000.0 -0.21614178444123483 -0.22503222363447012
1180000000.0 -0.10524331875856681 -0.2957694671516271
1200000000.0 -0.31755833869741196 0.03857428409780337
1220000000.0 -0.3298873129155909 -0.05114693004526904
1240000000.0 -0.2815173073124841 -0.22708625696041776
1260000000.0 -0.26695958311499823 0.2851503579665267
1280000000.0 0.3834960175931963 0.15955896235470024
1300000000.0 -0.33059428966142285 -0.272960224610878
1320000000.0 0.16961033961808503 0.39376170554249196
1340000000.0 0.3207261706886734 -0.2699623626330211
1360000000.0 -0.038843574471142554 -0.39836013220833444
1380000000.0 0.10044988580026226 -0.3670833803539142
1400000000.0 0.23769810388675852 -0.2767373193283214
1420000000.0 -0.01068913960483947 -0.34956501929349126
1440000000.0 -0.32957095868677333 -0.029945025043147118
1460000000.0 0.29366395258009137 0.09688517432139865
1480000000.0 -0.20998169965143565 0.17986431725374774
1500000000.0 -0.11372092059319171 -0.20787071312958588
1520000000.0 0.1624733268110751 0.10928940901951568
1540000000.0 -0.14314853479141182 -0.05104678036406055
1560000000.0 0.1096533838587526 -0.037089180605916365
1580000000.0 -0.07199542020907924 -0.044081759687848616
1600000000.0 0.05673652786932203 -0.010559976302099929
1620000000.0 -0.03304608614149326 -0.017702295635791752
1640000000.0 -0.01601749840194897 0.003119514543561732
1660000000.0 -0.0069618194498957875 -0.007554326706069467
1680000000.0 -0.014481718009929555 0.013089761584108985
1700000000.0 0.0039055102830124204 0.020928860805351203
1720000000.0 -0.01747230235188199 -0.01918173658870911
1740000000.0 0.033082593297733234 0.025473123355278807
1760000000.0 0.041945116697865166 -0.05140298485987539
1780000000.0 -0.08980708041732594 -0.04212257727163456
1800000000.0 0.04006864224613638 -0.13732323212609074
1820000000.0 0.12014788864647111 0.1460865346204216
1840000000.0 -0.1797786004541847 -0.14894740366332318
1860000000.0 0.2754746990088601 -0.0019952113672789705
1880000000.0 -0.24420434403962613 -0.17075089915956962
1900000000.0 0.2917484746234284 -0.1044437402902555
1920000000.0 -0.23544780256830528 -0.2260763079542862
1940000000.0 -0.3389348262520624 -0.0782568828688804
1960000000.0 -0.03511496434984211 0.3709343930396832
1980000000.0 0.3777410821924354 0.08864189326944344
2000000000.0 0.40190641448281383 -0.054189784928545856
2020000000.0 0.14883785547070075 -0.3954675847733741
2040000000.0 -0.41078378695868817 -0.14878940913295216
2060000000.0 0.22141918583871015 0.3825749550405436
2080000000.0 0.11618520690689974 -0.4178205205029657
2100000000.0 -0.40828269647335597 -0.09025306620835495
2120000000.0 -0.3424686490234905 0.20089883097189554
2140000000.0 -0.37526770435283846 -0.00019709659801035156
2160000000.0 0.35833969596944726 -0.015472656700373443
2180000000.0 -0.01248980148824494 0.35016150165602083
2200000000.0 -0.24324703355747912 0.2496195528291588
2220000000.0 -0.24506404683131242 0.25351004095171226
2240000000.0 0.25097017137702765 0.25895477726522503
2260000000.0 0.1794832310134196 -0.31725214372092153
2280000000.0 -0.2312740967317703 -0.2908592735876993
2300000000.0 -0.30673195653982555 0.24105247216306513
2320000000.0 0.3326321274863472 0.2511544521213839
2340000000.0 -0.07386289173989397 -0.4487587490905834
2360000000.0 0.18600766698557517 0.465786578007857
2380000000.0 -0.5518287309324043 -0.024090219299089496
2400000000.0 0.22556425446235562 -0.5560429985155895
2420000000.0 0.4750046078256294 0.43697314162029594
2440000000.0 -0.6360710975509525 0.2537448668589821
2460000000.0 0.3161864255861343 -0.6426988408654377
2480000000.0 -0.057210409339885644 0.739523890219687
2500000000.0 0.07564167742365839 -0.7539631442224146
2520000000.0 -0.27792926074373236 0.7135285298988229
2540000000.0 0.6024817942322732 -0.4744878253569654
2560000000.0 -0.7591529250214787 -0.03392075431241101
2580000000.0 0.43365327763420636 0.6059271819219751
2600000000.0 0.11914961923850295 -0.7112952191079592
2620000000.0 -0.5489586421114959 0.42233820400407435
2640000000.0 -0.26410314859271955 0.6020870473271085
2660000000.0 0.6165056846960197 -0.02262133693963785
2680000000.0 -0.39827733151866257 -0.4156516247839701
2700000000.0 0.028959623997669187 0.534146820411253
2720000000.0 0.3219678175063052 -0.37414315124471853
2740000000.0 -0.4214919113703399 0.1790097935077346
2760000000.0 0.41267661581502496 -0.10443721525304409
2780000000.0 -0.3953476561016476 0.06414273982426316
2800000000.0 0.34462349402830933 -0.1722017910239711
2820000000.0 0.0921905361428941 0.3633751145830813
2840000000.0 -0.3229900758823193 0.1721893419289662
2860000000.0 -0.053306719580665615 -0.35381445228685493
2880000000.0 0.08858751124982384 0.33934037160489944
2900000000.0 0.2425915225951081 -0.2520714524121954
2920000000.0 -0.2317294737818847 -0.2689340752701831
2940000000.0 -0.25515447050005546 0.25745260330744596
2960000000.0 0.20417990357580879 0.30304034142135705
2980000000.0 0.3113508080814991 0.1966141114472547
3000000000.0 0.344725407625548 0.13029321336985178
3020000000.0 0.2189839932407044 0.29161076775739686
3040000000.0 -0.1287666456714828 0.3329818661488473
3060000000.0 -0.23370107617128358 -0.2578450504920594
3080000000.0 0.3376631328290454 0.013470030965173876
3100000000.0 -0.2781783812676697 0.17383745302645984
3120000000.0 0.10170345296482529 -0.30297158138431496
3140000000.0 0.3097033011432783 0.011287080164986368
3160000000.0 -0.23792444807452517 0.17309181246493113
3180000000.0 -0.17513578188024592 0.20768926266741908
3200000000.0 -0.08613555876245542 0.22815026622861895
3220000000.0 0.14487143248737366 0.1500536453687793
3240000000.0 0.018006683134813923 0.1702503995212342
3260000000.0 -0.11709460029440118 -0.07450377831428334
3280000000.0 0.005502722914655954 -0.11302620868443339
3300000000.0 -0.016806668975516192 -0.09434457581946215
3320000000.0 -0.0061799272008728045 0.08286904816435393
3340000000.0 -0.022233897598609123 -0.06893578398489701
3360000000.0 -0.05732746107517408 -0.03878512270584264
3380000000.0 0.04668818094362995 -0.05096074822777159
3400000000.0 0.008287550487813702 -0.07262337060313467
3420000000.0 -0.07834695175343827 -0.02477110616117259
3440000000.0 0.0938669905544827 0.0018559114440069634
3460000000.0 0.01126722079007368 -0.10639584776908209
3480000000.0 -0.05309496166490651 -0.1081810837752764
3500000000.0 -0.09445140944583005 -0.1007139650893285
3520000000.0 -0.15456118289307189 0.018002900287541482
3540000000.0 0.08447955222076685 0.14639881516324793
3560000000.0 0.060123233969831456 -0.16705467298169502
3580000000.0 -0.18221877635674563 -0.005201154794000642
3600000000.0 -0.09849533199604589 0.15282884282985676
3620000000.0 -0.008119567719056194 0.1790067131637031
3640000000.0 -0.09526528955952193 0.14304561383899267
3660000000.0 -0.01434472816284121 -0.16236241964260167
3680000000.0 -0.06330378584535885 0.14170566863501063
3700000000.0 0.07718511525184119 -0.13027214576518945
3720000000.0 0.04592878160461018 0.138181194117246
3740000000.0 -0.1372448157334329 0.017354715070720554
3760000000.0 0.0007615037464492218 0.12259345368044496
3780000000.0 -0.0957750206270746 -0.043917198302308995
3800000000.0 0.04167062153752356 -0.08484264110964053
3820000000.0 -0.0930942784971272 -0.028272350766612935
3840000000.0 -0.0521769095742219 -0.10003339176231797
3860000000.0 -0.115642456732 -0.06974882434995577
3880000000.0 -0.111641494659397 -0.10828961069879477
3900000000.0 0.03918842138030878 0.15986035766093715
3920000000.0 -0.08181695749613023 -0.13798448722848622
3940000000.0 -0.14051928037259573 0.051684070636375506
3960000000.0 -0.08174582873308821 0.1115810810683535
3980000000.0 -0.10909082480586586 -0.06222847746002548
4000000000.0 -0.002080224930533151 0.11239041113747997
