!Created with skrf (http://scikit-rf.org).
# Hz S RI R 50.0 
!freq ReS11 ImS11
400000000.0 -0.767785533851604 0.3701657098572478
420000000.0 0.448538783305761 0.7027499023043686
440000000.0 0.7697300679270869 -0.09572334091432624
460000000.0 0.6701418961799451 0.23365909006508442
480000000.0 0.15678704440189775 0.6217070919235237
500000000.0 -0.4695907374494178 0.3319643227614645
520000000.0 0.11206754215993638 -0.5051859356363929
540000000.0 -0.20221354450387521 0.41431106785780714
560000000.0 -0.19763710587825786 -0.38181053517516755
580000000.0 -0.37461112342238545 -0.11442278651551928
600000000.0 0.016596964525246782 0.3665167829449738
620000000.0 -0.10569804886751122 0.3584088308994769
640000000.0 -0.31050262668766604 -0.2823475572899476
660000000.0 0.4265472497827912 -0.1662169126505315
680000000.0 -0.3776436721548649 -0.287543622271662
700000000.0 -0.1811982312377901 -0.4330554204176834
720000000.0 0.25495892061698566 0.36391812420179903
740000000.0 0.37408846250031047 0.14716804874538605
760000000.0 -0.1520740225157 0.31541703466596693
780000000.0 0.318074646247254 0.07456549270828275
800000000.0 0.10396607736324628 -0.2670917337236385
820000000.0 0.03418786581189654 0.23351058757343726
840000000.0 0.14012355415829642 -0.14412881726025611
860000000.0 -0.14175216742852637 -0.08809228186920658
880000000.0 -0.11875021361641232 -0.04187188697469049
900000000.0 0.04439292599755553 -0.08059698610350527
920000000.0 -0.0083675112053517 -0.053446153686381864
940000000.0 0.0009996179812209883 -0.03800034807915693
960000000.0 0.0010463059590877233 0.046995775421002486
980000000.0 0.05689524613222005 -0.03392294434999487
1000000000.0 0.0884403372332702 0.010034012606262311
1020000000.0 0.0762777609066841 -0.08643090657736281
1040000000.0 0.05018401244801603 0.12504230986507053
1060000000.0 -0.1031558993783271 -0.13074271937980794
1080000000.0 -0.1886533565574063 0.05388875228977673
1100000000.0 0.22564297863647984 -0.014851542228262602
1120000000.0 -0.08863911597607797 -0.23492196002773044
1140000000.0 0.1882972148208865 -0.19708444846228237
1160000000.0 -0.19455540337998814 0.22548434308812565
1180000000.0 0.30027405517979294 0.07546224925901808
1200000000.0 -0.2517034330788915 -0.17957802161158629
1220000000.0 -0.23837801805167255 -0.2256763465755303
1240000000.0 -0.3151623404496458 0.16176870488915865
1260000000.0 0.35841711765580697 0.09474015253481387
1280000000.0 -0.00028643641819937996 -0.3791652986722557
1300000000.0 -0.15747950363755783 -0.3434891741457505
1320000000.0 0.12932775632604274 -0.3599225510932024
1340000000.0 0.003756791963616915 -0.3898764271313338
1360000000.0 -0.35128263834647383 -0.1642551862693356
1380000000.0 -0.37656949131344714 0.033896188176718564
1400000000.0 0.0789473200357837 0.35496872378057376
1420000000.0 0.3304749795463209 -0.08019360120759667
1440000000.0 -0.02291489854810277 -0.3107539898657178
1460000000.0 -0.2574741183324765 -0.11331916741739886
1480000000.0 0.013757323723405102 0.24700615936841913
1500000000.0 0.20414513325407424 -0.03740653668711221
1520000000.0 0.13111763171149185 0.10321413063537513
1540000000.0 0.015188864105231835 -0.12714302143875542
1560000000.0 0.10226153953315487 -0.03423974443068437
1580000000.0 -0.01702742028851914 0.09299138286055297
1600000000.0 0.0015654643236848909 -0.074429319683438
1620000000.0 -0.04404904117083547 0.03617161030080056
1640000000.0 -0.01311039175661512 0.034278961783601805
1660000000.0 -0.032925091166566146 0.013595234277517361
1680000000.0 -0.03484965194170424 -0.02618150856040316
1700000000.0 -0.042642936752754386 -0.03692422884897834
1720000000.0 -0.015280575085798187 -0.06800580784858822
1740000000.0 -0.026795371670759165 0.08159612013255653
1760000000.0 -0.09406359229915026 -0.044918310951249124
1780000000.0 0.015071260542280756 -0.13367534242028772
1800000000.0 -0.025903356458205393 -0.1705204007493073
1820000000.0 0.2041088527389127 0.0007368758156020821
1840000000.0 -0.03455747255166818 0.23891016839617235
1860000000.0 -0.1239913299481061 0.24867177555693637
1880000000.0 -0.3060446496763592 0.007278139237569957
1900000000.0 0.3231325938070601 -0.05666956564288046
1920000000.0 -0.3143735762242347 -0.15887540834005065
1940000000.0 0.09368585876076782 0.3612856964750594
1960000000.0 0.1695073152753131 -0.34920194779851876
1980000000.0 -0.29245389029771174 -0.26839916143940445
2000000000.0 -0.4038474828699755 0.03040899241848743
2020000000.0 -0.3555426413050541 0.2061278317668391
2040000000.0 -0.027059351944698426 0.41630610842313465
2060000000.0 0.41443870433792934 -0.011299754249522741
2080000000.0 0.06473294524200889 -0.39763885888930894
2100000000.0 -0.23520020117505072 -0.3037872213956624
2120000000.0 -0.10034655825816578 -0.34876839073626
2140000000.0 0.25629872990586516 0.23135506029990324
2160000000.0 -0.03409234499844842 0.32357101758680334
2180000000.0 -0.3084325925373433 0.02851940946167927
2200000000.0 0.047687401630470534 -0.29514032231230125
2220000000.0 0.2615381946035661 0.13589238205410498
2240000000.0 -0.07597254122802516 0.28890766299967324
2260000000.0 -0.2962188532620739 0.09362465654965108
2280000000.0 -0.3192243343979766 0.0855936840522848
2300000000.0 0.087693198425681 0.3464154023413104
2320000000.0 0.21222312713762057 -0.33461407631274465
2340000000.0 -0.04277869719165932 0.44043720459666713
2360000000.0 -0.44714533799722506 -0.20644205066977453
2380000000.0 0.0877053971826358 -0.5388245921737567
2400000000.0 0.5960889214750984 -0.02956482702050346
2420000000.0 0.0714085848893552 0.6402729875007263
2440000000.0 -0.6834122707789929 -0.059340930969472676
2460000000.0 0.46927666072111984 -0.5437449094111149
2480000000.0 -0.0827661873423874 0.7379115163490186
2500000000.0 -0.021190767381528374 -0.7575305456668386
2520000000.0 -0.20808886723900108 0.73703669527305
2540000000.0 0.4018171947190212 -0.6526400157858859
2560000000.0 -0.7004723629142247 0.29348568178185913
2580000000.0 0.6600973728680445 0.34522801373263523
2600000000.0 -0.3397786571221784 -0.635642769400551
2620000000.0 -0.08814583130329551 0.686293138945628
2640000000.0 0.46298112667353514 0.4636116877853019
2660000000.0 -0.11839449941440128 -0.6014395204105212
2680000000.0 -0.1510567978307886 0.5463366498634905
2700000000.0 0.3520051389283185 -0.3831443932152497
2720000000.0 -0.4081765344054934 0.2417876338352287
2740000000.0 0.427549808428616 -0.06927879108058779
2760000000.0 -0.39548398182897615 -0.0074289095752476005
2780000000.0 0.3300637302020836 0.15818309958532745
2800000000.0 -0.3225804977193237 -0.12889895147714708
2820000000.0 0.32776052403390954 -0.06320295311208333
2840000000.0 -0.11277337675993243 0.30611404807667736
2860000000.0 -0.13720366288244204 -0.2883754355290515
2880000000.0 0.11778063633749516 0.2917591591631323
2900000000.0 0.2669186212605417 -0.15993301244704916
2920000000.0 0.14462353814572962 -0.2794613835281552
2940000000.0 -0.0677724722238516 -0.31413103016951355
2960000000.0 -0.19369197913224404 -0.26293151897596606
2980000000.0 -0.058788058479441914 -0.3263013282883686
3000000000.0 0.3010824125332254 -0.1529083184492076
3020000000.0 0.25541719909853283 0.2243112552818498
3040000000.0 -0.31588995377955226 0.12695804007457387
3060000000.0 -0.07955142322248795 -0.3342550565663429
3080000000.0 0.34176014497676205 0.018398751177046632
3100000000.0 0.1410745913929871 0.30553978199549725
3120000000.0 -0.276964110509878 0.17019268993559758
3140000000.0 -0.06531835107307582 -0.30348815898535625
3160000000.0 -0.1025334262234368 0.27513500707986127
3180000000.0 -0.2723348108026564 -0.03702693476499476
3200000000.0 -0.1067712253792286 -0.22962854207367492
3220000000.0 0.04321172577903346 -0.22352867646623786
3240000000.0 0.09396002466673475 -0.17942723702498023
3260000000.0 0.09410911622195928 -0.14873156738175533
3280000000.0 -0.1312512890551673 -0.07565856272207001
3300000000.0 0.11889137042998421 -0.04975272875004025
3320000000.0 0.0043148237194260645 -0.10953270144436021
3340000000.0 0.0950570377580967 0.009195545694882944
3360000000.0 0.08553140874130212 -0.029639538977188212
3380000000.0 0.08555213315893925 0.032606071262069034
3400000000.0 0.014640432347021047 -0.09963998822945812
3420000000.0 0.10048956501791881 -0.05823458116866559
3440000000.0 -0.124027162161317 0.04983756462551871
3460000000.0 -0.051036418629182234 0.13945110325313873
3480000000.0 -0.15491872397105216 -0.046209614927660576
3500000000.0 0.16963785392864036 -0.04050229170198729
3520000000.0 -0.16477832091665703 0.08512601525836903
3540000000.0 0.00990062299345325 -0.192376486160692
3560000000.0 0.041108741057292314 0.1868510990290776
3580000000.0 0.14833868280266346 -0.11253790148628416
3600000000.0 -0.013761433792736913 -0.17669755469198298
3620000000.0 0.016557074766955625 -0.16382697355247108
3640000000.0 0.10789367448566929 0.10655739092418288
3660000000.0 0.01559242497172477 -0.13651373823679783
3680000000.0 -0.012951739151368586 -0.12458690951243624
3700000000.0 0.010014777733655549 -0.11426566198025366
3720000000.0 0.07488402840099055 0.0763112970923216
3740000000.0 0.018926950104198172 -0.09997929730490078
3760000000.0 0.05980061668475688 0.08642164147302614
3780000000.0 0.11074158597006573 0.03102838064282885
3800000000.0 0.02521102985586344 0.13045528927577793
3820000000.0 0.086775433508295 -0.1253884192192028
3840000000.0 0.14188971045777696 0.09161794804392714
3860000000.0 0.18342324379383085 -0.024947564248999566
3880000000.0 -0.1860430163885208 -0.062443687696887365
3900000000.0 0.1731378065172324 -0.09202499173165508
3920000000.0 0.024571126223867368 0.18606344717979417
3940000000.0 -0.052276137659907886 -0.16549786558777407
3960000000.0 -0.0842115133002631 -0.12860303051756974
3980000000.0 -0.004508160680728902 0.1287378667992937
4000000000.0 -0.08978933564561031 0.04346821338822592
