!Created with skrf (http://scikit-rf.org).
# Hz S RI R 50.0 
!freq ReS11 ImS11
400000000.0 -0.8559647760947467 -0.012516237414743408
420000000.0 -0.04976340272728944 0.8386027776445576
440000000.0 0.6969703996247207 0.3719309305654348
460000000.0 0.7020752627914761 0.16921406252308477
480000000.0 -0.3445512310503966 0.5424849965061123
500000000.0 -0.3689561180162669 -0.4547816184274331
520000000.0 0.23824377691043783 0.46623227815841456
540000000.0 0.3099901198846172 -0.36329035846607893
560000000.0 0.18789356303098198 0.4067184657203504
580000000.0 0.3761626377969006 0.12297404052072
600000000.0 -0.014001886650613483 -0.3696150624371216
620000000.0 -0.22282159106931074 -0.29162828916968697
640000000.0 0.31842294384114933 -0.27039173805816175
660000000.0 0.03592798968720957 0.45335536948658606
680000000.0 -0.4749531632699034 -0.09237206896459778
700000000.0 -0.02654517381027194 0.4611400727018658
720000000.0 -0.09441045390345201 -0.4135843134725909
740000000.0 0.34587932743354555 -0.13006445530627572
760000000.0 -0.2440921921486558 -0.22172133009254769
780000000.0 -0.2770715138069169 0.1607322185556009
800000000.0 0.27064120781168566 -0.12240584224637158
820000000.0 -0.21697088963758465 0.11105635833903237
840000000.0 0.16535050260539472 0.08461441359219861
860000000.0 -0.02488115653264223 0.1614160863290106
880000000.0 0.05924629035020929 -0.10985741173073574
900000000.0 0.09612172329507496 0.017764751714147504
920000000.0 0.032169923445531545 -0.05067004949212479
940000000.0 -0.04102371674800735 0.004941376136117996
960000000.0 -0.04775802771193192 -0.020720013940477768
980000000.0 -0.06447476785286228 0.004979121164555235
1000000000.0 0.05868421035083473 0.046182387091692936
1020000000.0 0.042698136432073805 -0.09552636572349964
1040000000.0 -0.06205994605304538 0.10610048670231911
1060000000.0 0.16058282283537467 0.0075750493318410715
1080000000.0 -0.0837693075758259 0.17480944171587012
1100000000.0 0.1326560854000759 -0.18794509815706825
1120000000.0 -0.05653276638205936 0.2641638679174004
1140000000.0 0.24789332166819403 -0.15145635961352946
1160000000.0 -0.29963472673277164 0.061993744956323676
1180000000.0 -0.31570730317269785 -0.042603150011935625
1200000000.0 0.2876405614772584 0.14676436323205247
1220000000.0 0.17851330482515845 0.2908806654723776
1240000000.0 0.3143735549133831 0.19169649292731808
1260000000.0 0.03566078676425474 -0.3893019957417912
1280000000.0 -0.3640887371841393 -0.17018789291743583
1300000000.0 -0.4156668731231702 0.05617733122694389
1320000000.0 0.3266105822545843 0.27130784024618465
1340000000.0 0.39884120503425874 -0.1395158478302178
1360000000.0 0.024261367823731672 -0.40738379583061385
1380000000.0 0.342344005963774 -0.19154576308526605
1400000000.0 0.09247033891813997 -0.3727127211444376
1420000000.0 0.01875748209748965 -0.3636679101377819
1440000000.0 -0.3307875484401644 0.1306380763551264
1460000000.0 0.18424238073017393 -0.2700444267838172
1480000000.0 0.13722032667507003 0.2603332635681423
1500000000.0 -0.19105017163162263 0.15585702885486882
1520000000.0 0.08218910372013125 0.17946215715685584
1540000000.0 -0.037524302170892775 0.14503910302646766
1560000000.0 -0.07415895688506649 0.09593070967287644
1580000000.0 -0.10063009376785934 -0.046977685609657364
1600000000.0 0.07951208743385414 0.04136743595403696
1620000000.0 0.0388363737526431 0.05919699155978222
1640000000.0 -0.006420053897918919 -0.046489173187581924
1660000000.0 0.021767642025318713 -0.006126004980455806
1680000000.0 -0.005686826194889704 0.006046273476817226
1700000000.0 0.03717929130918292 -6.097953985263421e-05
1720000000.0 -0.051720442063511285 0.008018017889338456
1740000000.0 0.045168479902634444 -0.058268189720556376
1760000000.0 0.09807407820563033 0.008998140777827894
1780000000.0 -0.02171495060727683 -0.1194819195266581
1800000000.0 0.015834205541371986 -0.15191466914980908
1820000000.0 -0.12908563563450387 0.12601308144321544
1840000000.0 0.21835294804601046 -0.00012508864842583235
1860000000.0 -0.12931526064222132 0.23127490853672505
1880000000.0 -0.030071062879878117 0.3059233865499136
1900000000.0 -0.3145322895354318 0.1158576976757574
1920000000.0 0.20120422973996402 -0.29607771649743475
1940000000.0 -0.20029922213671128 0.31977324404988483
1960000000.0 0.37351980398756457 -0.09817132244491972
1980000000.0 0.28491673662115935 -0.26987495244301124
2000000000.0 0.188557890021181 -0.36129550921604336
2020000000.0 -0.12307393384963021 -0.3995205713013899
2040000000.0 -0.4188650118584611 0.09092201990137447
2060000000.0 0.22632803211597471 0.3632494899751622
2080000000.0 0.34639618135968314 -0.2380054285942106
2100000000.0 -0.31498130720912515 -0.2561485740805692
2120000000.0 -0.3834562777090783 0.008552663908575108
2140000000.0 -0.3040716505062165 0.2016493090620581
2160000000.0 -0.2373041332685478 -0.2447342510364167
2180000000.0 0.21369047610607517 -0.24046340633191174
2200000000.0 0.31914761747107023 0.01792795360788512
2220000000.0 0.2943256288205147 -0.12337097111479862
2240000000.0 -0.29598828058199844 -0.10142747946866677
2260000000.0 -0.1976298983202986 0.2367699591260878
2280000000.0 -0.16960946039682398 0.27127388808126934
2300000000.0 0.31917887107341786 0.12622751502177104
2320000000.0 -0.32572057441067503 -0.18349169477261512
2340000000.0 0.41075702556323845 0.0215145652064319
2360000000.0 -0.21071015148986047 0.4049751758956644
2380000000.0 -0.4202868557415727 -0.2828156950816665
2400000000.0 -0.0016465440863673224 -0.5575168265538463
2420000000.0 0.6006638828975565 -0.0646330682179157
2440000000.0 -0.0895216745762673 0.638888433037108
2460000000.0 -0.5017415203512705 -0.4655347876656307
2480000000.0 0.7045736252150381 -0.10406493867957615
2500000000.0 -0.6280093467463106 0.3710050963347239
2520000000.0 0.5405952217868282 -0.5027415054691795
2540000000.0 -0.4635237956765189 0.5720789946900229
2560000000.0 0.34441605231015354 -0.6349091973129248
2580000000.0 -0.6423673567311786 0.29832056341036134
2600000000.0 0.6494712545883897 0.22178853505567991
2620000000.0 0.5574044144890677 -0.3649745043659366
2640000000.0 -0.5931327209530466 -0.24314030138384227
2660000000.0 0.24098338871440209 0.5576927265445614
2680000000.0 0.13630928269492948 -0.5545444360540087
2700000000.0 -0.19809958972228925 0.49483814390847175
2720000000.0 -0.2345404876736957 -0.4336540763928699
2740000000.0 0.3051020280989957 0.3442839922088212
2760000000.0 -0.3216449845234188 -0.2880986338336571
2780000000.0 0.268167022041765 0.3103404815315205
2800000000.0 0.12277774280368678 -0.3870362390609123
2820000000.0 -0.2855326106620492 0.28315642120347756
2840000000.0 0.13725399274211034 -0.3729434538046822
2860000000.0 -0.18843788919341237 0.34479035374501027
2880000000.0 0.28190011147150845 -0.27195899853604616
2900000000.0 -0.2074185563032304 -0.33286354659304407
2920000000.0 -0.3947375279390501 0.018896743329779433
2940000000.0 -0.2773469117938115 0.27912881787912186
2960000000.0 -0.3536560777530238 -0.18140448337833892
2980000000.0 -0.06218146525467092 -0.39114172511951273
3000000000.0 0.4033482891544947 0.043776814017603645
3020000000.0 0.11717216765775011 0.3885589789967471
3040000000.0 -0.388029692551434 -0.09106491241417317
3060000000.0 0.38875507354959854 0.034215064406374764
3080000000.0 -0.3765285230640951 -0.013107244568350652
3100000000.0 0.24423438293117586 -0.28010030482276205
3120000000.0 0.2884593601365114 0.20602522657457747
3140000000.0 -0.3398747728495934 0.018866050753456563
3160000000.0 0.21523144548006098 0.23095993933727021
3180000000.0 -0.19768168313698575 0.21193773488461976
3200000000.0 -0.09557047236270724 -0.2535448195975463
3220000000.0 -0.03578497626959609 -0.24273181760473267
3240000000.0 0.1128560468594275 -0.183952165778899
3260000000.0 -0.02837775361069791 -0.19000618706297037
3280000000.0 -0.1674783466539271 -0.0671751621355635
3300000000.0 -0.14463500216280925 -0.07880762461597102
3320000000.0 -0.12801653442254796 0.08163370427500143
3340000000.0 0.08244417471713492 0.10807829695897585
3360000000.0 -0.057982187985010224 -0.10627141070244532
3380000000.0 -0.0695796904684955 0.051962158518050965
3400000000.0 -0.040761800157384155 -0.07136795788178224
3420000000.0 0.038092132174610376 -0.09367547233060025
3440000000.0 0.0584358315068527 -0.07695173683610851
3460000000.0 -0.07919530517467364 0.09121824838860766
3480000000.0 0.03436428945733389 0.12471120050112225
3500000000.0 -0.11326236699452663 0.0858604789706164
3520000000.0 -0.07185043575355186 0.1233825703307719
3540000000.0 -0.1470260277320854 -0.007333794496686406
3560000000.0 0.08010929668157528 0.10430345492123907
3580000000.0 0.09250059003040965 0.08416425982855816
3600000000.0 -0.13839898167211143 0.14101362437968432
3620000000.0 0.22812525363932953 0.0693127364978372
3640000000.0 0.05981927543493209 0.24807553629014673
3660000000.0 -0.20786869952232365 0.168782795279064
3680000000.0 0.2660013249677179 0.009681249881964537
3700000000.0 -0.12594988442742536 0.23759625580793942
3720000000.0 -0.27968147160107926 0.08582525158889419
3740000000.0 0.04096105677192378 -0.28705566967451107
3760000000.0 -0.23477520262887114 0.15680528173598574
3780000000.0 0.10033181461429114 0.25564964978528176
3800000000.0 0.09056885806554292 0.2535030743004296
3820000000.0 -0.13907834458552312 0.2185754664752794
3840000000.0 -0.1354004337573412 -0.1987764788830619
3860000000.0 -0.22567645618248414 0.056182333086524115
3880000000.0 0.23174938094222666 -0.058522045772421157
3900000000.0 0.2191649687966864 -0.10325579505351257
3920000000.0 -0.11038893648333237 0.15362867548619244
3940000000.0 0.11480748157379787 -0.19599180295590626
3960000000.0 0.15582598784312074 -0.15220662515662545
3980000000.0 -0.1897942516334536 -0.08063092598252768
4000000000.0 0.1690575078525915 -0.08709518470593826
