!Created with skrf (http://scikit-rf.org).
# Hz S RI R 50.0 
!freq ReS11 ImS11
400000000.0 0.24682304764034196 0.8064761520098115
420000000.0 0.7129468169115322 -0.41175452688495795
440000000.0 0.3189634204500146 -0.6927700515875096
460000000.0 0.6783115791588105 -0.1944063488536383
480000000.0 0.5770425075819513 0.301989379361043
500000000.0 0.4074773518531394 -0.4190024826352046
520000000.0 0.02880181430058096 0.5025635110849369
540000000.0 0.4447943714256352 0.0017477893193492938
560000000.0 -0.2756876177712857 0.31959196095495174
580000000.0 -0.26688721498831797 0.27095087573637844
600000000.0 -0.24032371220796864 0.2759540336815041
620000000.0 0.047938686351944815 0.3792044890009981
640000000.0 -0.3995672476485372 -0.16045633030758966
660000000.0 0.03346289671484181 -0.4745567873344958
680000000.0 0.3125355445256834 0.3739988103073168
700000000.0 0.3644983937086218 0.27520249726031565
720000000.0 0.3398339120955529 0.25178133768053074
740000000.0 -0.15810824647351857 0.3632883022050386
760000000.0 -0.27872161802990314 0.23206112406498766
780000000.0 -0.053068313217712666 -0.3233667304973495
800000000.0 -0.03240377993644321 -0.28447673173687005
820000000.0 0.2099449503184283 -0.11710660743906148
840000000.0 -0.156200827499683 0.12553009144842783
860000000.0 0.1592741645455083 0.029008987587052514
880000000.0 -0.06487098381900812 -0.0960612004388151
900000000.0 0.03980741593416471 -0.06685185945752725
920000000.0 0.006759184707856889 0.04469079553841274
940000000.0 -0.01871542577640238 0.03975850037246748
960000000.0 -0.021561421267135228 0.05482754572594608
980000000.0 0.07097382500742122 0.013448985559721675
1000000000.0 0.04778306295920714 0.08545005033075025
1020000000.0 -0.02073102237102734 0.1206533236027022
1040000000.0 0.0033728737945493492 0.12958813062984326
1060000000.0 -0.15004943485452113 -0.02258421342904767
1080000000.0 -0.18503440554939796 -0.030569898955019846
1100000000.0 0.13950585144483768 -0.16912637970568725
1120000000.0 -0.2410873580781165 0.025636665124804944
1140000000.0 -0.0703925514251378 -0.256204954387066
1160000000.0 0.12774782362734458 0.2570408164282853
1180000000.0 0.30414342088896035 -0.010793386841832897
1200000000.0 -0.145856531819114 0.2715038255773895
1220000000.0 0.25870652824559004 0.1957559819977996
1240000000.0 0.23589116819529868 -0.2360871388959829
1260000000.0 0.2628905297713 -0.22140915719303553
1280000000.0 0.27011045666448585 -0.23213700147863062
1300000000.0 0.14540686329829874 -0.3425592552154839
1320000000.0 -0.2831776473242347 -0.24818573270754896
1340000000.0 -0.3120739571873714 0.20590593235293492
1360000000.0 -0.222064433411995 0.2849305092822871
1380000000.0 -0.32870333720297634 0.10719669466669147
1400000000.0 -0.33387933727618546 -0.010523870377973676
1420000000.0 -0.2888566689741626 0.13348250525931016
1440000000.0 0.2985131852792125 0.04526902173233072
1460000000.0 -0.2533447750066019 -0.06907345035046918
1480000000.0 -0.1850257658832705 0.12187188906451406
1500000000.0 -0.057074164122117486 0.1677171248016509
1520000000.0 0.07901109068099257 0.1078593962017238
1540000000.0 0.10816312294154358 -0.029410854072837812
1560000000.0 -0.08102024988681289 -0.06699630513300696
1580000000.0 -0.07412093801098207 -0.05613861461044431
1600000000.0 -0.04695637923178731 -0.059350981115201464
1620000000.0 -0.031920075873597506 0.04910603036472348
1640000000.0 -0.04745091301106224 -0.02038089191277142
1660000000.0 -0.06029618348341059 -0.005777583692741127
1680000000.0 0.08071703498532469 -0.008742154452935502
1700000000.0 -0.08838952371629852 -0.03522507594878362
1720000000.0 0.08311753663901429 0.04452012615370076
1740000000.0 -0.05843591401356076 0.08542321129066777
1760000000.0 -0.06646004708314887 0.1077651671852216
1780000000.0 -0.15517486400295719 0.051391397272034574
1800000000.0 -0.032815314388508134 0.2018006132815731
1820000000.0 0.030446366512576182 0.232045126423098
1840000000.0 -0.22541047908888762 -0.13665567287478445
1860000000.0 -0.03068735155141311 -0.2971079849339418
1880000000.0 0.30090471435767235 -0.1159496384312868
1900000000.0 -0.3399237564815191 0.038078973877342694
1920000000.0 0.17357798877622002 0.31977074899775865
1940000000.0 0.1546481802309771 -0.35536783480029477
1960000000.0 -0.12610352144264672 0.38228403940672023
1980000000.0 0.39379064067566155 0.08171926122961008
2000000000.0 0.3887129629688037 -0.11522281057855918
2020000000.0 0.38117647762486423 -0.14059796167957977
2040000000.0 0.24264816595592795 -0.33182958824659214
2060000000.0 -0.3390707944272369 -0.22330104748795462
2080000000.0 -0.2964975569070635 0.25656196032275747
2100000000.0 -0.13655894756730735 0.3459413290924111
2120000000.0 -0.1858915518548109 0.29673504686748736
2140000000.0 0.050396616928450676 -0.3221856484522857
2160000000.0 0.27249181832967206 0.13240079181721257
2180000000.0 -0.2429253306040202 -0.1577910158354385
2200000000.0 0.2840601554306247 -0.016034908236031008
2220000000.0 -0.02621609305429366 0.28347042595316563
2240000000.0 -0.20797058153918074 0.2036501351598212
2260000000.0 -0.26256659886352535 -0.14497168548600015
2280000000.0 0.03074823224864665 -0.320076835567987
2300000000.0 -0.35987935607983834 -0.004797893174254178
2320000000.0 0.393171124459518 -0.10022884169286107
2340000000.0 0.02474894448935912 0.45312139310899807
2360000000.0 -0.4998137419886719 -0.005084242439570745
2380000000.0 -0.24492071330604645 -0.4929292026102824
2400000000.0 0.4403026122433765 -0.40916116747836956
2420000000.0 0.5314039567051607 0.371761872121101
2440000000.0 -0.4640551882128177 0.5081366404820914
2460000000.0 -0.2567917683495442 -0.6701715703679381
2480000000.0 0.7116086751473097 0.20464606056776025
2500000000.0 -0.7504927476618336 -0.07191608931866315
2520000000.0 0.7046727612244803 0.28660498887688296
2540000000.0 -0.4057871613028953 -0.6427180589674634
2560000000.0 -0.011502958084671387 0.7517387505933898
2580000000.0 0.5368641460148237 -0.5028814741101193
2600000000.0 -0.7109640689623983 -0.020947649020110707
2620000000.0 0.43653777511791164 0.5247449156948975
2640000000.0 0.6460897986477643 -0.004528010505280602
2660000000.0 -0.5858415578119824 -0.14480862599988503
2680000000.0 0.5140663488899346 0.21119238573148644
2700000000.0 -0.22479087474927958 -0.45341904843076775
2720000000.0 -0.2657805793354407 0.3751477638185812
2740000000.0 0.39603777171801374 0.14781748094927305
2760000000.0 -0.384786306119382 -0.08012426235321228
2780000000.0 0.3218987700607395 -0.16596161428068604
2800000000.0 -0.26289777662245106 0.21250852942403814
2820000000.0 0.1838557399740315 -0.2609153573707372
2840000000.0 -0.24563285495701867 0.18693937054560816
2860000000.0 0.3003053404417006 -0.061198344531192474
2880000000.0 -0.28996178615527884 -0.10495114514335868
2900000000.0 0.13286396916937668 0.2809951568474617
2920000000.0 0.3051535208980861 -0.07366746309490355
2940000000.0 0.2728377866193009 -0.16494808442925288
2960000000.0 0.32603191565191014 0.0182298501667887
2980000000.0 0.28718724997757705 0.1895096921294562
3000000000.0 0.3549186146259418 0.045964464521429424
3020000000.0 0.36228186871771983 -0.00523212918135714
3040000000.0 0.3604979358758352 -0.014948574852709933
3060000000.0 0.17489146427316818 0.3051412752540128
3080000000.0 -0.30994799354310754 0.14498807530863644
3100000000.0 -0.06209157506760423 -0.32293835915708924
3120000000.0 0.1290755743060692 0.28810361217175684
3140000000.0 -0.28424525686463303 -0.10440718424711498
3160000000.0 0.11450603341521426 0.26350185271548987
3180000000.0 -0.2510593621479926 0.09115850318922634
3200000000.0 0.05166672284119124 -0.23790178885537672
3220000000.0 0.14641289348010947 0.1682848998674619
3240000000.0 -0.06577419238100958 0.1933519082278552
3260000000.0 0.09445794323249164 0.16094019140476193
3280000000.0 -0.15840870341207094 -0.039030348582983015
3300000000.0 0.03539689253591691 -0.13234521610785113
3320000000.0 -0.016112829598730956 -0.11429683020701357
3340000000.0 -0.04221225599090568 0.09371859071508457
3360000000.0 -0.09849415660076456 0.018405273530074796
3380000000.0 -0.10613800368364491 0.00576870181878314
3400000000.0 0.05633017075569698 -0.10128115195211017
3420000000.0 -0.040315741690250685 -0.12371974187852133
3440000000.0 0.1267878649377903 0.06966732745986248
3460000000.0 0.15435546588635557 -0.03284130225255926
3480000000.0 0.15376134164726737 0.07133684438086114
3500000000.0 -0.15539650194875754 0.0939127849797491
3520000000.0 0.101444051482191 -0.164379352378073
3540000000.0 0.17407697522131643 0.0961508789601922
3560000000.0 -0.15513008725050942 0.11891390671679532
3580000000.0 0.1396502248744485 -0.11908771778017957
3600000000.0 0.10029492857781265 -0.1354196028966269
3620000000.0 0.07260159307720303 0.1355370798950973
3640000000.0 -0.011823303613908103 -0.13888904749921596
3660000000.0 -0.0988211692359325 -0.07450446675750372
3680000000.0 0.09417561427083233 0.057123191376583386
3700000000.0 0.08254688207179088 -0.06346556009941579
3720000000.0 0.09569720497164641 -0.040646576309240526
3740000000.0 -0.09121645433178314 -0.064979501459613
3760000000.0 -0.015468582642676329 0.12509596572998216
3780000000.0 -0.054214013619860835 0.13233945318297283
3800000000.0 0.11166104640016954 -0.11897627340915282
3820000000.0 0.13831828360686418 -0.11987329485888286
3840000000.0 0.013258949779163134 -0.19487734310327745
3860000000.0 -0.19201472318803733 0.07959312825572808
3880000000.0 -0.07650009628629248 -0.19859269886289677
3900000000.0 0.005056049751606811 -0.20512737449215762
3920000000.0 0.1873386324145512 -0.014353425019763987
3940000000.0 0.13945065077423577 -0.08784971925353222
3960000000.0 -0.12195428605604806 -0.06385351269902421
3980000000.0 -0.06590361643466201 -0.08663112832062952
4000000000.0 -0.0651741489330869 0.05185327822932326
